!CSV A.01.01
!Keysight Technologies,N5245B,MY63058204,A.19.30.04
!Date: Friday, March 20, 2026 10:20:32
!Source: Standard

BEGIN CH13_DATA
Freq(Hz),S21(DB),S21(DEG),S11(DB),S11(DEG),NF(DB),NF(DEG),S22(DB),S22(DEG)
27200000000,-8.3350592,69.159134,-16.197372,-100.36105,24.50736,0,-11.110912,-3.9764307
27210000000,-7.879993,59.997665,-16.25112,-100.78447,24.339373,0,-10.868222,-4.6972723
27220000000,-7.652102,50.447933,-16.353872,-100.95025,24.311209,0,-10.862619,-6.4379811
27230000000,-7.2400212,40.999043,-16.369946,-101.76301,24.196857,0,-10.864717,-9.4157791
27240000000,-6.9543285,31.324152,-16.489754,-101.94789,24.242582,0,-10.808776,-12.97056
27250000000,-6.6193933,21.387856,-16.562828,-102.43312,24.251251,0,-10.624856,-16.102131
27260000000,-6.3151221,11.501548,-16.718904,-103.0379,24.278076,0,-10.381552,-18.276724
27270000000,-5.98699,1.6153892,-16.850523,-103.76732,24.210848,0,-10.293837,-19.958778
27280000000,-5.6048741,-8.7595234,-16.981134,-104.47764,24.195175,0,-10.357748,-22.184753
27290000000,-5.2510495,-18.783499,-17.049297,-104.61517,24.068777,0,-10.429304,-25.214277
27300000000,-4.9305735,-28.938688,-17.17631,-104.23161,24.114521,0,-10.398661,-28.844139
27310000000,-4.5846429,-39.529655,-17.33824,-104.66924,23.976791,0,-10.312724,-31.982365
27320000000,-4.3008828,-50.229122,-17.495192,-104.38792,24.051241,0,-10.183151,-34.126205
27330000000,-4.0346808,-60.974686,-17.637985,-103.7383,24.059505,0,-10.314193,-36.045395
27340000000,-3.7042625,-71.731949,-17.768681,-102.96343,23.960552,0,-10.545033,-38.211636
27350000000,-3.4685366,-82.614899,-17.956213,-101.68722,23.943281,0,-10.77755,-41.446983
27360000000,-3.2385535,-93.670616,-18.073389,-101.33018,23.93066,0,-10.875161,-45.479233
27370000000,-3.0300155,-104.33295,-18.191999,-100.6505,24.034067,0,-10.883838,-48.064163
27380000000,-2.8343387,-115.72705,-18.359589,-99.793549,23.963562,0,-10.987818,-49.497314
27390000000,-2.6486161,-126.94486,-18.296589,-99.010155,23.969736,0,-11.278966,-50.611961
27400000000,-2.4874163,-137.93967,-18.353928,-98.329529,24.082918,0,-11.753954,-52.267467
27410000000,-2.3422871,-148.97878,-18.28904,-97.155457,23.919336,0,-12.263577,-55.189102
27420000000,-2.2551191,-160.09923,-18.171576,-96.001366,24.105804,0,-12.588966,-57.84581
27430000000,-2.1393197,-170.78104,-18.081318,-94.676918,24.029638,0,-12.818111,-59.785557
27440000000,-2.0675328,178.18541,-17.922974,-93.465332,23.89263,0,-12.975547,-60.110302
27450000000,-2.0180404,167.12329,-17.786854,-92.480713,24.027258,0,-13.316217,-59.317039
27460000000,-1.9364033,156.45517,-17.630447,-91.44091,23.957737,0,-13.918349,-59.274513
27470000000,-1.8864324,145.71111,-17.489834,-91.414238,23.946486,0,-14.532082,-60.202614
27480000000,-1.8707862,134.77834,-17.343626,-91.181938,24.033792,0,-14.965901,-62.146484
27490000000,-1.8185335,123.94496,-17.151976,-91.292084,24.066387,0,-15.081851,-62.777691
27500000000,-1.8073468,113.54715,-16.933037,-91.35817,24.046015,0,-15.18808,-61.932564
27510000000,-1.7909271,102.77107,-16.72788,-91.785294,24.052053,0,-15.453563,-59.405331
27520000000,-1.7809224,92.177963,-16.478601,-92.557938,24.076405,0,-15.983719,-57.220108
27530000000,-1.796095,81.639786,-16.25123,-92.793198,24.117765,0,-16.528492,-56.826717
27540000000,-1.758387,71.255737,-16.039925,-93.311836,24.119783,0,-16.856287,-57.756943
27550000000,-1.8015724,60.887737,-15.768429,-93.779694,24.04841,0,-17.00425,-58.773956
27560000000,-1.8228537,50.682713,-15.62903,-93.876419,23.999977,0,-16.917501,-58.008995
27570000000,-1.8431909,40.498211,-15.427828,-94.318695,23.91251,0,-16.985338,-55.568489
27580000000,-1.8784662,30.055927,-15.359613,-95.035599,23.991739,0,-17.316538,-52.519188
27590000000,-1.8757945,20.184116,-15.280753,-95.623482,24.048031,0,-18.033604,-50.948376
27600000000,-1.9321481,9.9218054,-15.296482,-96.603012,24.129864,0,-18.528856,-51.665203
27610000000,-1.9300648,0.1448523,-15.208419,-97.707993,24.082605,0,-18.705997,-53.478386
27620000000,-1.964403,-9.909358,-15.175016,-98.981606,23.957933,0,-18.520653,-51.819027
27630000000,-2.0030746,-19.905268,-15.042886,-100.34083,24.025513,0,-18.419479,-48.593685
27640000000,-1.9850583,-29.537205,-14.994697,-101.31306,24.025879,0,-18.650984,-44.169933
27650000000,-1.9674209,-39.547367,-14.914762,-102.63089,24.085405,0,-19.011671,-39.641586
27660000000,-2.0200737,-49.1059,-14.841461,-103.25783,24.04434,0,-19.613878,-39.132236
27670000000,-1.9901397,-58.836143,-14.812663,-104.50941,24.105799,0,-19.921373,-39.883724
27680000000,-2.0344992,-68.71331,-14.811337,-105.14197,24.142342,0,-19.573286,-38.607761
27690000000,-2.0486219,-78.577629,-14.865005,-106.42853,24.165987,0,-19.249258,-34.907398
27700000000,-2.0359728,-88.408394,-14.869458,-107.38184,23.939005,0,-19.050253,-29.423458
27710000000,-2.0445211,-98.13044,-14.893023,-108.10264,23.89185,0,-19.20195,-23.936937
27720000000,-2.0609508,-107.5897,-14.929292,-109.72989,23.944292,0,-19.806519,-20.567415
27730000000,-2.081712,-117.19209,-14.937759,-111.11172,24.040287,0,-20.023319,-21.885212
27740000000,-2.0905235,-126.72953,-15.019893,-111.97322,24.053617,0,-19.83836,-21.671366
27750000000,-2.1336753,-136.48657,-14.987655,-113.20937,24.183138,0,-19.055471,-19.940613
27760000000,-2.0954635,-146.06232,-14.96909,-114.0006,24.148926,0,-18.373592,-15.102254
27770000000,-2.1185589,-155.52837,-15.01568,-114.70165,24.138865,0,-17.98531,-9.6218395
27780000000,-2.0756254,-165.08557,-15.038543,-115.03537,24.039944,0,-17.985764,-6.2344465
27790000000,-2.0593147,-174.539,-15.055867,-114.87175,23.926298,0,-18.168051,-5.768311
27800000000,-2.0124569,176.17682,-15.152406,-115.06464,23.920542,0,-17.904909,-7.2774062
27810000000,-1.9781362,166.6078,-15.241104,-114.83662,23.900286,0,-17.144384,-8.7043486
27820000000,-1.9838458,156.98961,-15.381447,-115.00846,23.964586,0,-16.285362,-6.9287281
27830000000,-1.9586076,147.20592,-15.469835,-115.09145,23.957083,0,-15.795979,-3.7232265
27840000000,-1.9156307,137.82814,-15.690944,-115.00311,24.011349,0,-15.575159,-1.5817314
27850000000,-1.905887,127.969,-15.741767,-115.45564,24.027679,0,-15.642743,-1.6718308
27860000000,-1.855602,118.17715,-15.785597,-115.98555,23.975668,0,-15.543948,-4.7589793
27870000000,-1.8224012,108.85266,-15.855037,-115.99739,23.939898,0,-14.977839,-7.5886688
27880000000,-1.8431817,99.118637,-15.861679,-115.5295,23.976284,0,-14.297322,-8.1127844
27890000000,-1.8171046,89.337166,-15.851398,-115.36967,23.99061,0,-13.837821,-7.1582618
27900000000,-1.8150114,79.877312,-15.839861,-114.84541,23.845446,0,-13.784244,-5.6961722
27910000000,-1.7811971,69.988617,-15.830914,-114.13671,23.910862,0,-13.899652,-5.7997112
27920000000,-1.7843233,60.624786,-15.880201,-113.5686,23.995682,0,-13.96592,-8.2421303
27930000000,-1.7954546,50.980049,-15.865574,-112.53284,23.873653,0,-13.710937,-11.483968
27940000000,-1.7846922,41.204494,-15.977819,-111.66801,23.943222,0,-13.247507,-12.906844
27950000000,-1.7716631,31.668039,-16.017515,-111.15698,23.795614,0,-12.960206,-12.314812
27960000000,-1.7593123,21.875599,-16.021446,-110.62879,23.863014,0,-12.97155,-11.752918
27970000000,-1.7327956,12.054624,-16.096622,-110.47799,23.86286,0,-13.153489,-12.498754
27980000000,-1.7653638,2.7077725,-16.089199,-110.5151,23.924929,0,-13.314396,-15.047163
27990000000,-1.7972926,-6.9449997,-16.096781,-109.96644,23.913021,0,-13.10053,-18.026764
28000000000,-1.7991936,-16.587357,-16.061867,-109.75828,23.938101,0,-12.821536,-19.542444
28010000000,-1.8115298,-26.562765,-16.04822,-109.15406,23.961502,0,-12.474412,-19.351017
28020000000,-1.8077515,-35.866241,-15.948559,-108.45702,23.876612,0,-12.525196,-18.466209
28030000000,-1.8184383,-45.422855,-15.861625,-108.42712,23.92967,0,-12.711718,-19.06819
28040000000,-1.8552508,-55.079357,-15.789561,-107.11954,23.835207,0,-12.991566,-20.836952
28050000000,-1.8819959,-64.672859,-15.697322,-106.57301,23.895748,0,-12.986253,-23.48632
28060000000,-1.921353,-74.03466,-15.68068,-105.80639,23.871336,0,-12.746361,-24.247009
28070000000,-1.9491448,-83.600296,-15.669474,-105.17432,23.91783,0,-12.549704,-23.315893
28080000000,-1.9089613,-92.783646,-15.649892,-104.95148,23.913269,0,-12.700696,-21.732605
28090000000,-1.959563,-102.58469,-15.517305,-104.63904,23.819717,0,-12.935308,-21.562674
28100000000,-1.971166,-111.76009,-15.428518,-104.52482,23.740644,0,-13.209642,-22.929903
28110000000,-2.0068338,-121.40415,-15.346082,-104.48227,23.805414,0,-13.086107,-25.75329
28120000000,-2.048878,-130.85799,-15.172545,-104.59502,23.764029,0,-12.75974,-26.702997
28130000000,-2.0517468,-140.11806,-15.010211,-104.99976,23.769533,0,-12.529638,-25.616364
28140000000,-2.1206932,-149.5148,-14.862328,-105.15683,23.926445,0,-12.530708,-23.76017
28150000000,-2.08321,-158.83467,-14.694812,-105.34381,23.914038,0,-12.79773,-22.178844
28160000000,-2.1321027,-168.16435,-14.552544,-105.40466,24.003569,0,-13.144563,-23.489952
28170000000,-2.1631031,-177.29549,-14.382421,-105.28328,23.906794,0,-13.202943,-26.074385
28180000000,-2.2021096,173.38017,-14.279677,-105.25253,23.89468,0,-12.89784,-27.565008
28190000000,-2.1833913,163.94101,-14.160513,-105.61617,23.768419,0,-12.546165,-27.328552
28200000000,-2.2118568,154.64951,-14.057866,-105.82252,23.840164,0,-12.523517,-25.405148
28210000000,-2.1838143,145.22906,-14.034681,-106.31116,23.82815,0,-12.638854,-24.061031
28220000000,-2.2031004,135.90517,-13.990614,-106.91918,23.78373,0,-12.986378,-25.00527
28230000000,-2.2204762,126.47744,-13.950874,-107.5414,23.928526,0,-13.035457,-27.186546
28240000000,-2.223038,117.12022,-13.967673,-108.28149,23.972412,0,-12.648959,-28.669357
28250000000,-2.2788119,107.72974,-13.924224,-108.9763,23.833557,0,-12.254678,-28.814882
28260000000,-2.310077,98.328323,-13.884553,-109.94237,23.865103,0,-12.085133,-27.370207
28270000000,-2.333349,89.144859,-13.835054,-110.84942,23.852571,0,-12.197435,-26.37027
28280000000,-2.35765,79.807343,-13.792625,-111.31755,23.773222,0,-12.485734,-26.872559
28290000000,-2.4189162,70.609276,-13.770864,-112.40982,23.844461,0,-12.558009,-29.161015
28300000000,-2.4395552,61.354969,-13.785615,-112.94785,23.822897,0,-12.355752,-31.241587
28310000000,-2.5256221,52.235924,-13.740533,-113.34092,23.868908,0,-12.065676,-31.473776
28320000000,-2.5174425,43.158115,-13.763759,-113.48451,23.797089,0,-11.924747,-30.069574
28330000000,-2.5274251,33.930347,-13.786246,-113.99075,23.740593,0,-12.064209,-28.976131
28340000000,-2.549614,24.922134,-13.822634,-114.09346,23.753033,0,-12.414843,-29.65593
28350000000,-2.5943666,15.805882,-13.879494,-114.54095,23.866598,0,-12.573703,-32.308121
28360000000,-2.6317289,6.9626312,-14.007508,-114.99315,23.986422,0,-12.388738,-34.245403
28370000000,-2.672637,-2.1845009,-14.080544,-115.27908,23.902388,0,-12.085975,-34.543495
28380000000,-2.6947517,-11.231276,-14.14817,-116.05717,23.952192,0,-11.997313,-33.391167
28390000000,-2.668154,-20.239933,-14.218606,-116.17799,23.882458,0,-12.191636,-31.784698
28400000000,-2.6732199,-29.270388,-14.205247,-116.54571,23.849548,0,-12.501115,-31.811033
28410000000,-2.6716969,-38.045132,-14.268158,-117.116,23.81296,0,-12.658208,-34.27388
28420000000,-2.6803014,-47.17152,-14.284588,-117.00082,23.715445,0,-12.482554,-36.709068
28430000000,-2.6839814,-56.082695,-14.265866,-116.93507,23.728498,0,-12.191272,-37.460644
28440000000,-2.6684427,-65.308144,-14.304925,-116.75362,23.773916,0,-12.000845,-36.492367
28450000000,-2.6492202,-74.240318,-14.371123,-116.30601,23.774549,0,-12.199955,-35.124397
28460000000,-2.6330037,-83.473045,-14.370285,-115.77242,23.880651,0,-12.539709,-35.266705
28470000000,-2.6107838,-92.194832,-14.512775,-115.10262,23.805754,0,-12.808132,-37.269646
28480000000,-2.5813649,-101.44015,-14.652364,-114.70292,23.788836,0,-12.75851,-39.774605
28490000000,-2.5785248,-110.65327,-14.72232,-114.23279,23.898552,0,-12.480241,-40.46069
28500000000,-2.5599008,-119.69952,-14.875362,-114.37297,23.825718,0,-12.403642,-39.596581
28510000000,-2.5083089,-128.77745,-14.918727,-114.23048,23.897242,0,-12.533547,-38.239239
28520000000,-2.4726491,-138.07289,-15.009096,-114.38393,23.82897,0,-13.012336,-38.054688
28530000000,-2.4653966,-147.08873,-14.894706,-114.78479,23.820452,0,-13.334311,-39.679008
28540000000,-2.4438701,-156.06139,-14.896462,-114.59702,23.773464,0,-13.34372,-42.101212
28550000000,-2.4246168,-165.24829,-14.891151,-114.18565,23.757315,0,-13.132714,-42.572979
28560000000,-2.3883243,-174.86787,-14.824507,-113.94514,23.788143,0,-13.018336,-40.582939
28570000000,-2.342438,176.05333,-14.774737,-113.24929,23.905947,0,-13.153118,-38.600296
28580000000,-2.312613,166.79419,-14.808241,-112.45148,23.870173,0,-13.609502,-37.412033
28590000000,-2.2849147,157.59857,-14.792692,-111.23837,23.947218,0,-13.984425,-38.409275
28600000000,-2.291172,148.25685,-14.724802,-110.47242,23.938536,0,-14.07835,-40.287563
28610000000,-2.2712786,138.94386,-14.797137,-109.78291,23.928286,0,-13.924616,-40.725845
28620000000,-2.2210572,129.45183,-14.823438,-109.23331,23.74774,0,-13.785731,-38.783569
28630000000,-2.2074592,119.97074,-14.822397,-109.25867,23.850908,0,-13.968441,-36.056343
28640000000,-2.1933546,110.87635,-14.752526,-109.23227,23.908449,0,-14.439755,-34.118774
28650000000,-2.1577659,101.39642,-14.598571,-108.82979,23.874187,0,-14.864592,-34.775345
28660000000,-2.1915743,92.013329,-14.512175,-108.82155,23.880379,0,-14.897672,-36.479733
28670000000,-2.1969125,82.628227,-14.373587,-108.83936,23.840826,0,-14.588264,-36.804047
28680000000,-2.2102659,73.018021,-14.209142,-108.35538,23.852909,0,-14.22336,-34.493412
28690000000,-2.2149773,63.734982,-14.085802,-108.01752,23.92067,0,-14.107121,-30.68564
28700000000,-2.191963,54.426987,-13.938651,-107.44323,23.872459,0,-14.306659,-28.392841
28710000000,-2.1802185,44.866241,-13.901455,-107.08756,23.904427,0,-14.597501,-27.85585
28720000000,-2.1960058,35.767799,-13.854724,-106.40128,23.994247,0,-14.581935,-28.792669
28730000000,-2.1815331,26.250271,-13.790017,-106.51925,24.06868,0,-14.177771,-29.175512
28740000000,-2.2304008,16.767649,-13.786366,-106.64628,24.181501,0,-13.698536,-27.296659
28750000000,-2.2432334,7.3734112,-13.69257,-107.57047,24.07386,0,-13.410976,-23.992159
28760000000,-2.2271318,-2.0516417,-13.649601,-108.44485,24.036613,0,-13.506472,-21.332546
28770000000,-2.2377746,-11.402905,-13.573721,-109.51057,23.982519,0,-13.678699,-21.012571
28780000000,-2.2403772,-20.688845,-13.462498,-110.535,23.962236,0,-13.654265,-22.940958
28790000000,-2.2767658,-30.18136,-13.325807,-111.36055,24.018082,0,-13.231312,-24.900682
28800000000,-2.3062773,-39.714771,-13.173859,-111.8263,23.947451,0,-12.608921,-24.691326
28810000000,-2.36482,-49.246922,-13.104725,-112.00444,24.108557,0,-12.212321,-23.060871
28820000000,-2.3652525,-58.503235,-12.994467,-112.41282,24.204685,0,-12.136925,-21.606997
28830000000,-2.3468337,-67.795074,-13.008848,-112.51405,24.139088,0,-12.188447,-21.585125
28840000000,-2.4345069,-77.20414,-12.996559,-112.72733,24.102791,0,-12.185111,-23.90304
28850000000,-2.4925556,-86.602859,-13.047192,-113.36672,24.0459,0,-11.93411,-26.469334
28860000000,-2.5586245,-95.869766,-13.096989,-114.11907,24.099798,0,-11.465262,-27.298679
28870000000,-2.5927849,-105.38948,-13.150058,-115.06751,24.19389,0,-11.177058,-26.58148
28880000000,-2.6012919,-114.69564,-13.207544,-115.82229,24.188885,0,-11.055418,-25.570433
28890000000,-2.6464858,-123.92724,-13.239129,-117.04976,24.297827,0,-11.195902,-25.762209
28900000000,-2.7436302,-133.15738,-13.246125,-118.03239,24.295504,0,-11.268075,-27.915737
28910000000,-2.7795794,-142.23111,-13.209816,-118.94232,24.284388,0,-11.095482,-30.292395
28920000000,-2.8144712,-151.47867,-13.222193,-119.30666,24.221634,0,-10.807491,-31.836065
28930000000,-2.9127569,-160.87613,-13.239714,-119.45594,24.215096,0,-10.57273,-31.890942
28940000000,-2.9414225,-169.98445,-13.301527,-119.42649,24.293339,0,-10.545249,-31.757662
28950000000,-2.9983313,-179.30052,-13.403049,-119.65617,24.373009,0,-10.694576,-32.624928
28960000000,-3.0201044,171.76883,-13.555228,-119.84953,24.38043,0,-10.781402,-34.617252
28970000000,-3.1385803,162.66812,-13.718903,-120.69667,24.646107,0,-10.707293,-36.545685
28980000000,-3.1527095,153.82419,-13.891817,-121.25697,24.569561,0,-10.44858,-37.741344
28990000000,-3.2312214,144.6629,-14.066741,-122.80264,24.536148,0,-10.331385,-37.580036
29000000000,-3.2487483,135.43034,-14.199485,-123.9145,24.335737,0,-10.4306,-37.603794
29010000000,-3.2962115,126.57271,-14.242738,-124.89931,24.317902,0,-10.605639,-38.090534
29020000000,-3.3519697,117.85011,-14.32234,-125.5235,24.303709,0,-10.720769,-39.988266
29030000000,-3.3834083,108.90523,-14.346519,-125.82847,24.375334,0,-10.665811,-42.044281
29040000000,-3.4205928,99.849632,-14.402518,-125.69805,24.465309,0,-10.477861,-43.19978
29050000000,-3.4397845,90.815926,-14.514297,-125.55511,24.473608,0,-10.407945,-42.88102
29060000000,-3.4695609,82.01503,-14.682891,-124.83529,24.563915,0,-10.504339,-42.69875
29070000000,-3.5219781,73.319176,-14.86326,-124.40087,24.4792,0,-10.692312,-43.081562
29080000000,-3.5148239,64.380363,-15.12839,-123.8681,24.345798,0,-10.856603,-44.95969
29090000000,-3.5164118,55.672146,-15.364898,-123.79656,24.33148,0,-10.864623,-46.74007
29100000000,-3.5126336,46.792904,-15.643101,-123.78389,24.335901,0,-10.676383,-47.946423
29110000000,-3.5323725,37.727932,-15.959313,-124.45217,24.488466,0,-10.589451,-47.537834
29120000000,-3.4954584,28.550726,-16.063858,-124.99353,24.593424,0,-10.695763,-47.084206
29130000000,-3.4844892,19.608839,-16.24234,-125.39635,24.656675,0,-11.004663,-47.110615
29140000000,-3.4511209,10.760037,-16.250006,-125.41114,24.499681,0,-11.285753,-48.602276
29150000000,-3.4295156,1.6780249,-16.374708,-125.12691,24.27058,0,-11.366691,-50.686234
29160000000,-3.4206753,-7.2845769,-16.384409,-124.05114,24.264782,0,-11.263898,-51.642223
29170000000,-3.4282033,-16.384228,-16.463921,-122.60674,24.175703,0,-11.271923,-51.192692
29180000000,-3.3666656,-25.685583,-16.578365,-121.51591,24.311806,0,-11.43222,-50.357441
29190000000,-3.3826306,-34.891846,-16.762608,-119.87856,24.449499,0,-11.760121,-49.878563
29200000000,-3.3356411,-44.101955,-16.960588,-118.25327,24.560291,0,-12.056088,-50.419807
29210000000,-3.3080547,-53.292538,-17.256458,-117.98959,24.474182,0,-12.193408,-51.442924
29220000000,-3.2915132,-62.559433,-17.534639,-117.17107,24.35306,0,-12.194824,-51.372833
29230000000,-3.2755542,-71.977333,-17.734577,-117.51006,24.320578,0,-12.107575,-50.005028
29240000000,-3.2905278,-81.319992,-17.933132,-117.94259,24.209,0,-12.251356,-47.878593
29250000000,-3.2816656,-90.970047,-17.989883,-117.77791,24.124031,0,-12.490658,-45.903023
29260000000,-3.3018079,-100.24342,-17.945415,-118.14554,24.10306,0,-12.695553,-45.294922
29270000000,-3.2976356,-109.83748,-17.883572,-117.54892,24.15835,0,-12.64669,-45.026497
29280000000,-3.3239412,-119.10137,-17.822712,-116.19406,24.252995,0,-12.496992,-44.434433
29290000000,-3.3414919,-128.17874,-17.695772,-113.82777,24.217625,0,-12.179626,-42.783611
29300000000,-3.4002738,-138.17609,-17.779129,-111.59043,24.251492,0,-11.96787,-39.991219
29310000000,-3.4424191,-147.5535,-17.808113,-109.33075,24.214441,0,-11.891794,-37.904297
29320000000,-3.446116,-156.86984,-17.953194,-106.91955,24.112711,0,-11.866162,-37.306919
29330000000,-3.5118685,-166.23268,-18.101814,-105.22146,24.141954,0,-11.734641,-37.776619
29340000000,-3.592294,-175.57603,-18.332565,-104.25582,24.222294,0,-11.361976,-38.601597
29350000000,-3.6750488,175.07588,-18.501049,-103.4416,24.079714,0,-10.955631,-38.526505
29360000000,-3.7561517,165.62309,-18.571421,-103.23,24.237564,0,-10.570661,-38.038361
29370000000,-3.8239281,156.34578,-18.540079,-104.1245,24.266342,0,-10.350351,-37.509842
29380000000,-3.8967288,147.28081,-18.423626,-104.42024,24.158964,0,-10.197956,-37.767391
29390000000,-4.0001969,137.9855,-18.242594,-104.0465,24.033878,0,-10.015796,-38.986176
29400000000,-4.0677333,129.14713,-18.050114,-103.81743,23.979681,0,-9.7509232,-40.569698
29410000000,-4.2035017,120.13064,-17.91102,-102.90264,24.04977,0,-9.4046545,-41.852833
29420000000,-4.3186612,111.10548,-17.736511,-101.72363,24.157936,0,-9.1490288,-42.89032
