!Keysight Technologies,N5245B,MY63058204,A.19.30.04
!Date: Friday, March 20, 2026 10:10:39
!Correction: S11(C  2-Port  ) 
!S21(C  2-Port  ) 
!S12(C  2-Port  ) 
!S22(C  2-Port  ) 
!S2P File: Measurements: S11, S21, S12, S22:
# Hz S  dB   R 50
27200000000 -16.559263 -101.53727 -8.2808599 68.901283 -62.887764 139.79013 -11.102335 -3.8125527
27201000000 -16.577576 -101.56151 -8.2456102 67.956558 -62.63533 126.16531 -11.061183 -3.9455757
27202000000 -16.57955 -101.57842 -8.2209082 66.985489 -62.115078 135.24301 -11.048148 -4.0142636
27203000000 -16.575153 -101.56645 -8.1805334 66.101395 -64.66555 128.5954 -11.024005 -4.0868206
27204000000 -16.580002 -101.60033 -8.1582842 65.131432 -62.011906 136.57718 -10.976593 -4.2734923
27205000000 -16.569309 -101.74842 -8.1186581 64.188293 -63.986401 130.68044 -10.971024 -4.3206072
27206000000 -16.583323 -101.74346 -8.0846033 63.252666 -63.390057 134.83536 -10.944051 -4.4118981
27207000000 -16.580971 -101.7464 -8.0509396 62.300205 -63.971539 140.52846 -10.925809 -4.6618881
27208000000 -16.586847 -101.76218 -8.0180969 61.387508 -62.806267 127.51759 -10.912779 -4.6810942
27209000000 -16.59297 -101.95172 -7.9907231 60.467514 -63.802494 112.90317 -10.898702 -4.7866974
27210000000 -16.596687 -101.83154 -7.9553218 59.516315 -61.9767 123.50624 -10.899491 -4.9376111
27211000000 -16.5954 -101.9973 -7.9137378 58.549763 -63.155655 121.88442 -10.871831 -5.0050049
27212000000 -16.610771 -102.03878 -7.8818498 57.662308 -64.281197 136.55919 -10.861548 -5.1623702
27213000000 -16.59321 -102.05142 -7.8489232 56.68367 -61.552311 125.27586 -10.857143 -5.2373557
27214000000 -16.600235 -102.01819 -7.8154659 55.751728 -62.347527 127.25451 -10.853651 -5.4143624
27215000000 -16.610481 -102.01731 -7.7822332 54.761765 -62.116596 115.06765 -10.840781 -5.5697017
27216000000 -16.626812 -102.1825 -7.7469859 53.856026 -63.04295 134.61363 -10.855462 -5.7471676
27217000000 -16.626942 -102.12019 -7.7121916 52.941078 -62.930336 124.0461 -10.850197 -5.9328489
27218000000 -16.621201 -102.26276 -7.6794138 51.95649 -63.478668 104.92325 -10.854919 -6.0718069
27219000000 -16.649574 -102.26151 -7.6482134 50.977249 -62.439449 105.89977 -10.858527 -6.3158202
27220000000 -16.658016 -102.30797 -7.6157737 50.045856 -62.177998 114.8891 -10.854244 -6.505177
27221000000 -16.651318 -102.30677 -7.5736799 49.097649 -62.346302 118.20832 -10.855103 -6.7593522
27222000000 -16.653652 -102.40483 -7.5455818 48.103607 -63.896763 117.54545 -10.861954 -6.9839382
27223000000 -16.652971 -102.38352 -7.5172691 47.16573 -63.104286 112.97449 -10.871616 -7.2290955
27224000000 -16.676069 -102.47825 -7.4794006 46.193626 -62.368969 112.20295 -10.87677 -7.5544686
27225000000 -16.684917 -102.47496 -7.445827 45.297756 -61.784309 108.64586 -10.885743 -7.839798
27226000000 -16.69383 -102.51152 -7.4157872 44.311951 -62.669258 111.58339 -10.888347 -8.1188068
27227000000 -16.712366 -102.58352 -7.3829865 43.3284 -62.327705 108.67483 -10.879144 -8.3778419
27228000000 -16.70969 -102.72347 -7.347898 42.390633 -62.737286 111.94365 -10.889131 -8.687952
27229000000 -16.717127 -102.70605 -7.3136091 41.435642 -61.817322 95.76281 -10.880268 -9.0575056
27230000000 -16.724722 -102.69884 -7.2785907 40.475689 -61.229443 106.47902 -10.89637 -9.3384075
27231000000 -16.730272 -102.75085 -7.2480493 39.483665 -64.034607 110.99992 -10.8855 -9.7774353
27232000000 -16.74645 -102.78038 -7.2121315 38.521442 -63.753117 100.21313 -10.88579 -10.04274
27233000000 -16.767391 -102.8613 -7.185813 37.528629 -62.334198 100.03014 -10.880441 -10.307429
27234000000 -16.76371 -102.83657 -7.1501465 36.596893 -63.11253 106.69921 -10.868235 -10.755771
27235000000 -16.790337 -103.00748 -7.1165047 35.625698 -62.915077 119.38338 -10.867322 -11.064307
27236000000 -16.79928 -102.99503 -7.0769806 34.684589 -63.830715 109.1315 -10.859312 -11.565931
27237000000 -16.807468 -103.12675 -7.049408 33.727699 -63.525364 102.23164 -10.840172 -11.892732
27238000000 -16.819599 -103.10271 -7.0239377 32.72398 -62.437359 99.393028 -10.831218 -12.258847
27239000000 -16.830774 -103.22498 -6.9823914 31.781164 -61.947624 99.270477 -10.807218 -12.695176
27240000000 -16.838858 -103.2009 -6.9498572 30.766191 -62.014534 99.698036 -10.793137 -13.092942
27241000000 -16.85494 -103.30688 -6.9136348 29.803612 -62.341965 98.79364 -10.766422 -13.437024
27242000000 -16.856989 -103.42239 -6.8920221 28.829697 -62.807705 96.215424 -10.762965 -13.782937
27243000000 -16.879808 -103.40353 -6.8515339 27.864893 -64.06694 102.58786 -10.748232 -14.133497
27244000000 -16.894381 -103.57695 -6.8186717 26.890265 -62.235043 100.90823 -10.725145 -14.494308
27245000000 -16.912392 -103.49882 -6.7792048 25.911259 -62.918404 94.372932 -10.715366 -14.805411
27246000000 -16.915874 -103.56991 -6.7533736 24.922543 -61.869019 89.050499 -10.684292 -15.14034
27247000000 -16.919739 -103.58217 -6.7168036 23.944809 -63.391895 80.885956 -10.667282 -15.504997
27248000000 -16.935736 -103.67596 -6.679594 22.974514 -63.770489 79.316704 -10.634476 -15.72862
27249000000 -16.964838 -103.73015 -6.6488872 22.012846 -61.354958 91.68927 -10.620405 -16.013632
27250000000 -16.959349 -103.85191 -6.6117859 21.020027 -64.174316 94.687309 -10.596519 -16.392662
27251000000 -16.962576 -103.92142 -6.579236 20.041788 -62.767284 85.860771 -10.584018 -16.643141
27252000000 -16.980686 -104.10291 -6.5558953 19.068275 -62.904694 99.206833 -10.560676 -16.851744
27253000000 -17.005007 -104.02706 -6.5134368 18.067982 -62.070992 90.750984 -10.535448 -17.130856
27254000000 -17.031551 -104.13239 -6.4832368 17.12393 -63.6222 78.076439 -10.506705 -17.403263
27255000000 -17.027536 -104.13881 -6.4468179 16.174913 -62.945145 90.89901 -10.491555 -17.579325
27256000000 -17.034773 -104.19343 -6.4105091 15.110465 -62.702812 82.604759 -10.478317 -17.799305
27257000000 -17.047127 -104.35413 -6.380126 14.144346 -61.353741 78.827919 -10.461136 -17.962463
27258000000 -17.060507 -104.43146 -6.3402824 13.105581 -63.06424 81.646217 -10.433426 -18.173258
27259000000 -17.082266 -104.44546 -6.3159928 12.143199 -63.155445 94.151634 -10.431895 -18.386625
27260000000 -17.090107 -104.46478 -6.2793112 11.147954 -63.814556 86.55851 -10.404288 -18.577564
27261000000 -17.113752 -104.52694 -6.2422242 10.165774 -61.655407 83.910454 -10.400853 -18.807882
27262000000 -17.114368 -104.64534 -6.2120996 9.1822157 -64.595749 75.201561 -10.386694 -19.020031
27263000000 -17.121695 -104.88451 -6.1748877 8.157671 -60.92878 86.767509 -10.376932 -19.140476
27264000000 -17.152451 -104.85092 -6.1448436 7.1654859 -63.252975 78.189064 -10.364339 -19.364872
27265000000 -17.142208 -104.8474 -6.1046715 6.1721358 -62.745239 77.57962 -10.352103 -19.514717
27266000000 -17.179653 -104.96969 -6.0773668 5.1637864 -63.883518 76.663193 -10.34341 -19.627356
27267000000 -17.172981 -105.0516 -6.0447116 4.1336751 -62.05122 67.747215 -10.348948 -19.881821
27268000000 -17.187845 -105.1229 -6.0084834 3.1863415 -62.208591 70.613815 -10.354134 -20.068441
27269000000 -17.20277 -105.15602 -5.9778247 2.1472759 -62.58696 75.769997 -10.346756 -20.27347
27270000000 -17.220003 -105.18378 -5.9395189 1.1914105 -62.466419 75.497879 -10.347056 -20.36775
27271000000 -17.235178 -105.22648 -5.9096026 0.12439843 -63.427513 59.371685 -10.339168 -20.521187
27272000000 -17.224861 -105.31672 -5.8692751 -0.84067762 -62.959888 68.323563 -10.349844 -20.74898
27273000000 -17.261442 -105.33037 -5.8343945 -1.8121552 -64.162842 67.130325 -10.347402 -20.941244
27274000000 -17.271452 -105.44736 -5.8061261 -2.8337224 -62.274487 75.117134 -10.342161 -21.224771
27275000000 -17.270075 -105.48327 -5.7591152 -3.821825 -64.794495 69.935646 -10.344046 -21.423096
27276000000 -17.292252 -105.57977 -5.7242708 -4.8548665 -63.010609 63.098831 -10.360254 -21.649845
27277000000 -17.294992 -105.56189 -5.6909537 -5.8929172 -62.873669 70.030548 -10.364547 -21.880028
27278000000 -17.314003 -105.81339 -5.6639762 -6.8968768 -62.701027 62.879082 -10.371542 -22.136927
27279000000 -17.31768 -105.69326 -5.627934 -7.9187489 -61.883713 62.967133 -10.365919 -22.422422
27280000000 -17.331409 -105.74028 -5.5957336 -8.8797483 -63.525131 62.442593 -10.389983 -22.691046
27281000000 -17.33353 -105.80592 -5.5602288 -9.8862486 -63.051949 71.59536 -10.387098 -22.90621
27282000000 -17.353191 -105.83605 -5.5223203 -10.918822 -63.150135 62.986221 -10.392286 -23.248823
27283000000 -17.364206 -105.95989 -5.4910846 -11.985918 -64.11058 60.713184 -10.399024 -23.621424
27284000000 -17.38224 -106.00806 -5.4604254 -12.992756 -62.485554 66.212418 -10.404325 -23.858473
27285000000 -17.391479 -105.91364 -5.423214 -14.019575 -63.295021 65.72142 -10.414339 -24.179207
27286000000 -17.387835 -106.02103 -5.3862023 -15.030185 -63.665928 59.413116 -10.407693 -24.531725
27287000000 -17.408588 -106.06692 -5.359026 -16.046801 -63.61581 60.306908 -10.416451 -24.906446
27288000000 -17.431898 -106.06149 -5.3244939 -17.077402 -64.405113 55.877178 -10.423595 -25.195601
27289000000 -17.436167 -106.24279 -5.2861733 -18.140583 -62.6171 49.548603 -10.427495 -25.568459
27290000000 -17.446478 -106.1335 -5.2575769 -19.175913 -62.704525 51.465668 -10.435323 -25.902369
27291000000 -17.46102 -106.14776 -5.2301083 -20.220667 -63.972244 52.638512 -10.427836 -26.291994
27292000000 -17.450571 -106.21012 -5.1917763 -21.204456 -62.846359 61.994438 -10.428734 -26.632444
27293000000 -17.491096 -106.26705 -5.1567502 -22.267214 -63.09346 52.552288 -10.416912 -26.956297
27294000000 -17.485615 -106.27907 -5.1244955 -23.27495 -63.337364 73.334686 -10.430411 -27.322315
27295000000 -17.512882 -106.26543 -5.088098 -24.317308 -62.900707 47.469742 -10.410204 -27.65905
27296000000 -17.5305 -106.24373 -5.0610499 -25.323853 -62.648029 52.258461 -10.418764 -28.022579
27297000000 -17.536289 -106.30616 -5.0315437 -26.40309 -64.061119 60.450008 -10.405661 -28.369659
27298000000 -17.543129 -106.25096 -5.0013671 -27.472723 -62.298622 48.569107 -10.399772 -28.784306
27299000000 -17.565414 -106.25018 -4.9700389 -28.508062 -62.792229 49.334816 -10.399355 -29.049543
27300000000 -17.551033 -106.34561 -4.9378829 -29.524837 -62.196819 48.919357 -10.382585 -29.340706
27301000000 -17.579075 -106.20947 -4.9019198 -30.572941 -63.281193 35.78096 -10.367832 -29.665052
27302000000 -17.594112 -106.38808 -4.8700485 -31.644857 -63.640247 53.289989 -10.356315 -29.990252
27303000000 -17.589949 -106.25465 -4.8405824 -32.670788 -61.995403 38.95808 -10.344878 -30.344297
27304000000 -17.615437 -106.22288 -4.8123517 -33.699417 -63.141617 31.415588 -10.331096 -30.718367
27305000000 -17.635372 -106.20866 -4.7781787 -34.769688 -61.761421 47.864487 -10.312278 -30.942816
27306000000 -17.62928 -106.17413 -4.7451143 -35.813385 -61.974068 41.08503 -10.292855 -31.186869
27307000000 -17.645096 -106.17146 -4.7163563 -36.876102 -62.503616 43.922222 -10.290065 -31.467094
27308000000 -17.662394 -106.20971 -4.684803 -37.915607 -61.940174 46.583984 -10.292226 -31.699478
27309000000 -17.677483 -106.1103 -4.663538 -38.962563 -62.436703 36.917797 -10.272946 -31.944437
27310000000 -17.686188 -106.10323 -4.6249213 -40.059277 -63.310421 51.778542 -10.266663 -32.226578
27311000000 -17.696859 -106.11975 -4.5952315 -41.097134 -64.58654 49.148102 -10.245351 -32.428726
27312000000 -17.71487 -106.01491 -4.5600715 -42.161022 -62.684174 31.766809 -10.243464 -32.633846
27313000000 -17.72621 -106.03252 -4.5314407 -43.201931 -61.890491 29.159727 -10.233658 -32.888237
27314000000 -17.761017 -105.9316 -4.5047674 -44.290783 -63.480076 36.374596 -10.224815 -33.109077
27315000000 -17.768522 -106.04625 -4.4718671 -45.349651 -62.010334 40.154175 -10.211646 -33.292053
27316000000 -17.778061 -105.94798 -4.4405794 -46.415909 -63.393017 27.499687 -10.217798 -33.471077
27317000000 -17.781391 -105.85696 -4.4074354 -47.4925 -65.534935 38.378258 -10.213744 -33.693398
27318000000 -17.812571 -105.81217 -4.379426 -48.579628 -64.089844 39.671112 -10.204533 -33.811119
27319000000 -17.81893 -105.7438 -4.3493671 -49.61235 -64.155525 32.470722 -10.214812 -34.022079
27320000000 -17.836079 -105.82762 -4.3242717 -50.73912 -62.744354 33.008747 -10.221628 -34.192123
27321000000 -17.86746 -105.63274 -4.2950654 -51.762722 -63.73035 27.11685 -10.220187 -34.345692
27322000000 -17.88245 -105.61941 -4.2693601 -52.836784 -64.272873 44.247494 -10.230429 -34.513565
27323000000 -17.902843 -105.54806 -4.2378068 -53.945698 -65.210854 18.873272 -10.242422 -34.679604
27324000000 -17.911364 -105.51581 -4.204329 -54.975136 -63.043877 30.11845 -10.248158 -34.841766
27325000000 -17.940672 -105.44443 -4.175446 -56.054367 -63.828766 29.499754 -10.268035 -34.936226
27326000000 -17.956923 -105.43088 -4.1516161 -57.116844 -64.803452 28.536053 -10.2888 -35.108463
27327000000 -17.978317 -105.21826 -4.1231103 -58.224548 -63.922993 26.96273 -10.290755 -35.357906
27328000000 -17.975264 -105.2866 -4.0906196 -59.302723 -63.426727 40.234634 -10.306366 -35.576183
27329000000 -17.991066 -105.1443 -4.0684633 -60.359406 -63.816376 28.350136 -10.330299 -35.719006
27330000000 -18.014835 -105.14788 -4.0333009 -61.416843 -62.362953 13.978958 -10.346449 -35.902691
27331000000 -18.042341 -105.04665 -4.0031543 -62.50782 -62.532124 21.468277 -10.382473 -36.107399
27332000000 -18.060381 -105.03055 -3.9803853 -63.558987 -63.107903 28.974022 -10.398109 -36.308594
27333000000 -18.098585 -104.90008 -3.9499452 -64.642609 -63.135399 12.396749 -10.415029 -36.502289
27334000000 -18.075804 -104.84327 -3.9202888 -65.703369 -64.478905 12.575381 -10.442261 -36.722378
27335000000 -18.11096 -104.82803 -3.8860281 -66.795303 -65.466652 15.100654 -10.46783 -37.005383
27336000000 -18.144547 -104.72577 -3.8572588 -67.891907 -64.650467 30.821379 -10.503253 -37.211273
27337000000 -18.144026 -104.49474 -3.8364782 -68.943176 -63.563301 20.628439 -10.516143 -37.479584
27338000000 -18.175833 -104.51755 -3.8037169 -70.019951 -62.708344 19.595512 -10.54898 -37.816986
27339000000 -18.187492 -104.49527 -3.7724311 -71.130409 -62.858295 9.1291666 -10.569407 -38.125153
27340000000 -18.198151 -104.40748 -3.7472258 -72.181351 -66.157333 5.818408 -10.595887 -38.357265
27341000000 -18.210232 -104.23963 -3.7155385 -73.267715 -62.999077 14.052588 -10.619242 -38.72414
27342000000 -18.240931 -104.2347 -3.6888461 -74.372726 -64.494148 1.1051792 -10.650469 -38.992905
27343000000 -18.276819 -104.165 -3.662338 -75.457794 -64.229454 28.649864 -10.670367 -39.360077
27344000000 -18.288832 -104.12592 -3.6431279 -76.536514 -62.788162 17.326759 -10.701868 -39.643539
27345000000 -18.298452 -103.93951 -3.607162 -77.67131 -62.654369 26.972763 -10.719477 -40.055546
27346000000 -18.331469 -103.94515 -3.5874445 -78.724358 -62.8908 0.056964152 -10.745068 -40.450165
27347000000 -18.33271 -103.94349 -3.5565109 -79.835899 -64.284729 18.482187 -10.758677 -40.766197
27348000000 -18.352041 -103.78011 -3.5320499 -80.922104 -63.103218 28.307669 -10.796171 -41.198547
27349000000 -18.38183 -103.70401 -3.5090256 -82.029213 -63.079777 31.944054 -10.799697 -41.583984
27350000000 -18.399624 -103.58105 -3.4906209 -83.124321 -64.929939 17.822599 -10.812515 -41.97369
27351000000 -18.409348 -103.53325 -3.4569712 -84.22023 -63.577324 12.008296 -10.843345 -42.344002
27352000000 -18.450909 -103.50631 -3.4327044 -85.3414 -63.562843 8.0338736 -10.848794 -42.76223
27353000000 -18.464951 -103.38871 -3.4101322 -86.415085 -62.909798 7.7890811 -10.854151 -43.176094
27354000000 -18.491407 -103.28934 -3.3852491 -87.547806 -63.292171 1.7028939 -10.877121 -43.624596
27355000000 -18.49445 -103.20466 -3.3595052 -88.63092 -63.376789 -3.0513232 -10.872741 -43.924385
27356000000 -18.512861 -103.22198 -3.3364286 -89.755959 -62.319637 7.8197532 -10.890182 -44.319332
27357000000 -18.528763 -103.09396 -3.315423 -90.892227 -64.199646 17.368736 -10.894075 -44.722069
27358000000 -18.559237 -103.0237 -3.2952235 -91.968201 -63.162502 -2.7371733 -10.896716 -45.026825
27359000000 -18.577078 -102.91252 -3.2690587 -93.071228 -63.79261 22.638662 -10.897784 -45.371147
27360000000 -18.588345 -102.76328 -3.2481465 -94.172295 -63.604237 -5.354599 -10.901714 -45.765141
27361000000 -18.606262 -102.75745 -3.2280688 -95.325798 -62.325565 -2.0815995 -10.907072 -46.069042
27362000000 -18.623173 -102.73302 -3.2013798 -96.422188 -63.764896 -2.1875312 -10.894162 -46.388477
27363000000 -18.631586 -102.63049 -3.1805263 -97.558273 -64.557549 -1.0221254 -10.897453 -46.752739
27364000000 -18.66057 -102.5825 -3.1642215 -98.60598 -64.70015 6.2270961 -10.911695 -46.948315
27365000000 -18.662205 -102.56404 -3.1411872 -99.731232 -61.859016 7.1785073 -10.898261 -47.306519
27366000000 -18.695906 -102.49084 -3.1226268 -100.8315 -63.788128 -13.07916 -10.903762 -47.523861
27367000000 -18.697979 -102.37022 -3.104506 -101.96656 -63.457069 -5.6463766 -10.905552 -47.81411
27368000000 -18.714645 -102.32362 -3.0828452 -103.066 -63.235779 -8.4090424 -10.894598 -48.034946
27369000000 -18.742353 -102.27077 -3.0606964 -104.12097 -62.970264 -7.1687551 -10.908383 -48.274883
27370000000 -18.745113 -102.18159 -3.0411489 -105.23966 -63.341995 5.0832005 -10.909464 -48.453552
27371000000 -18.754063 -102.12 -3.021239 -106.42555 -63.701576 -8.5931263 -10.902657 -48.602798
27372000000 -18.772207 -102.02695 -2.9989436 -107.51379 -64.194244 -6.95193 -10.918958 -48.858486
27373000000 -18.783258 -101.89818 -2.9835856 -108.55124 -64.008942 -6.5313578 -10.919968 -48.940048
27374000000 -18.809296 -101.9704 -2.9682171 -109.68364 -64.636024 -10.866422 -10.922878 -49.169304
27375000000 -18.816124 -101.75636 -2.9482136 -110.82145 -63.349308 -7.5764847 -10.94795 -49.378868
27376000000 -18.830317 -101.75473 -2.9258304 -111.93716 -62.771992 -5.5564861 -10.946505 -49.386604
27377000000 -18.824356 -101.76389 -2.9017155 -113.04556 -63.824333 -12.59651 -10.960275 -49.497356
27378000000 -18.823679 -101.58423 -2.8902857 -114.19046 -64.20536 -13.842954 -10.982306 -49.730125
27379000000 -18.840199 -101.58487 -2.8727353 -115.29166 -63.941326 -26.792105 -11.002888 -49.786209
27380000000 -18.839954 -101.39384 -2.8492367 -116.384 -65.341843 -24.68578 -11.016356 -49.913372
27381000000 -18.864094 -101.46078 -2.8338211 -117.46977 -64.007019 -18.939465 -11.052769 -50.065472
27382000000 -18.861528 -101.27372 -2.816283 -118.65887 -64.78495 -11.621632 -11.067082 -50.099857
27383000000 -18.859917 -101.22674 -2.7963762 -119.70964 -68.360252 -12.743204 -11.096109 -50.145439
27384000000 -18.889244 -101.30219 -2.7766101 -120.79873 -63.30661 -17.728308 -11.123373 -50.329254
27385000000 -18.879604 -101.06383 -2.7594209 -121.88238 -63.567566 -18.392271 -11.152502 -50.306164
27386000000 -18.898033 -101.01219 -2.7454545 -123.02148 -63.87566 -21.037291 -11.203774 -50.339886
27387000000 -18.908768 -100.94956 -2.7173421 -124.1447 -63.334736 -22.123466 -11.224122 -50.511967
27388000000 -18.875767 -100.75006 -2.7078238 -125.27613 -65.146057 -19.144835 -11.259684 -50.599834
27389000000 -18.903618 -100.76449 -2.696208 -126.35236 -63.633583 -9.6450205 -11.309627 -50.616776
27390000000 -18.885475 -100.85136 -2.671051 -127.47111 -64.508202 -25.99288 -11.346334 -50.801052
27391000000 -18.90955 -100.6691 -2.6554923 -128.59055 -64.376205 -8.8291616 -11.397301 -50.874596
27392000000 -18.891764 -100.70824 -2.6375968 -129.68571 -64.456703 -28.148041 -11.438422 -51.050396
27393000000 -18.904663 -100.41205 -2.6257927 -130.76602 -63.238026 -18.485874 -11.493774 -51.158066
27394000000 -18.898205 -100.44658 -2.6106105 -131.90843 -65.49247 -33.969929 -11.54261 -51.318104
27395000000 -18.904062 -100.39588 -2.5921011 -132.99471 -64.821274 -20.353893 -11.583994 -51.413315
27396000000 -18.898607 -100.20117 -2.5754287 -134.12149 -63.126972 -31.553951 -11.643486 -51.556419
27397000000 -18.876322 -100.191 -2.5512927 -135.25267 -63.446651 -28.898045 -11.683136 -51.812935
27398000000 -18.882139 -99.972046 -2.5433683 -136.36032 -62.73719 -18.202122 -11.747269 -52.06255
27399000000 -18.880028 -100.07407 -2.5294907 -137.4274 -64.941414 -19.993389 -11.795623 -52.228611
27400000000 -18.867201 -99.896622 -2.5132198 -138.59344 -65.250702 -25.541159 -11.854721 -52.42297
