Freq,S11dB,S11deg,S21dB,S21deg,S12dB,S12deg,S22dB,S22deg,5V Supply Current [A],2V Supply Current [A],-3V3 Supply Current [A],5V Supply Voltage [V],2V Supply Voltage [V],-3V3 Supply Voltage [V],5V Supply Quiescent Current [A],2V Supply Quiescent Current [A],-3V3 Supply Quiescent Current [A],sn,path,temp,group_delay_ns,group_delay_ns_60_mhz,S21dB_60_mhz,group_delay_ns_120_mhz,S21dB_120_mhz,group_delay_ns_250_mhz,S21dB_250_mhz,group_delay_ns_400_mhz,S21dB_400_mhz,group_delay_ns_500_mhz,S21dB_500_mhz,group_delay_ns_1000_mhz,S21dB_1000_mhz,group_delay_ns_2400_mhz,S21dB_2400_mhz
27500000000.0,-9.0562675,20.391,45.30511012975747,-326.98214347826075,-80.8584,-333.1015,-12.113875833333331,31.030500000000004,0.0168970674276351,0.3623664081096649,-0.0074202148243784,5.000000476837158,2.0,-3.299999952316284,0.0171767193824052,0.3636562526226043,-0.0074229100719094,RXEM1-000036,1,-20.0,1.701269989752603,0.0,0.18098998300546043,1.4210854715202004e-14,0.36197996601092086,1.4210854715202004e-14,0.8366623764085332,1.4210854715202004e-14,1.8704320868924995,0.01849753086423722,2.5288372419933864,0.08040308641974958,4.559110540169371,0.2035450617283565,7.445353770029882
27510000000.0,-8.867409285714286,14.7413,45.36544012409263,-333.1067154413701,-80.129,-345.60689999999994,-12.173041190476189,30.921900000000004,0.0168970674276351,0.3623664081096649,-0.0074202148243784,5.000000476837158,2.0,-3.299999952316284,0.0171767193824052,0.3636562526226043,-0.0074229100719094,RXEM1-000036,1,-20.0,1.701269989752603,1.4210854715202004e-14,0.24131997734061628,1.4210854715202004e-14,0.4223099603460696,1.4210854715202004e-14,0.9497318068587433,4.929390229335695e-14,1.9941161600039337,0.023756790123460325,2.644562194113419,0.08040308641974958,4.589493841915882,0.2035450617283565,7.524507965148423
27520000000.0,-8.678551071428572,14.6314,45.42577011842778,-339.2312874044795,-80.046,-371.5263,-12.232206547619047,32.2073,0.0168970674276351,0.3623664081096649,-0.0074202148243784,5.000000476837158,2.0,-3.299999952316284,0.0171767193824052,0.3636562526226043,-0.0074229100719094,RXEM1-000036,1,-20.0,1.701269989752603,1.4210854715202004e-14,0.3016499716757721,1.4210854715202004e-14,0.48096213393790777,1.4210854715202004e-14,1.0783553281888274,0.007639007221966088,2.1285266859811642,0.026333950617263735,2.7725793802479473,0.08040308641974958,4.632432652153831,0.2035450617283565,7.583374849428061
27530000000.0,-8.489692857142858,14.6779,45.486100112762934,-345.35585936758883,-78.3604,-372.7801,-12.291371904761903,33.0537,0.0168970674276351,0.3623664081096649,-0.0074202148243784,5.000000476837158,2.0,-3.299999952316284,0.0171767193824052,0.3636562526226043,-0.0074229100719094,RXEM1-000036,1,-20.0,1.701269989752603,1.4210854715202004e-14,0.301649971675765,1.4210854715202004e-14,0.5531524997925459,1.4210854715202004e-14,1.2080751917343164,0.01715424901190965,2.2670436096975877,0.0319759259259611,2.8828130473875646,0.08040308641974958,4.667355733933967,0.2035450617283565,7.623287874196301
27540000000.0,-8.300834642857144,9.369,45.54643010709809,-351.4804313306982,-79.9027,-393.7713,-12.35053726190476,32.9848,0.0168970674276351,0.3623664081096649,-0.0074202148243784,5.000000476837158,2.0,-3.299999952316284,0.0171767193824052,0.3636562526226043,-0.0074229100719094,RXEM1-000036,1,-20.0,1.7012699897525887,1.4210854715202004e-14,0.301649971675765,1.4210854715202004e-14,0.6404335715200631,1.4210854715202004e-14,1.326138357424199,0.01715424901190965,2.3922785487735823,0.03851111111114136,2.982179838238544,0.08975092592588418,4.72050696913837,0.2035450617283565,7.646663883169715
27550000000.0,-8.11197642857143,4.1522,45.606760101433245,-357.6050032938075,-82.0986,-361.7717999999999,-12.409702619047618,32.7969,0.0168970674276351,0.3623664081096649,-0.0074202148243784,5.000000476837158,2.0,-3.299999952316284,0.0171767193824052,0.3636562526226043,-0.0074229100719094,RXEM1-000036,1,-20.0,1.7012699897525887,1.4210854715202004e-14,0.29997215093244733,1.4210854715202004e-14,0.7317764242470943,1.4210854715202004e-14,1.460621152313891,0.01849753086423722,2.5288372419933864,0.043623148148153934,3.07291780616481,0.10316327160494954,4.760562977782051,0.2035450617283565,7.646663883169715
27560000000.0,-7.923118214285716,-2.139,45.667090095768394,-363.72957525691686,-79.963,-390.9217,-12.468867976190475,33.6712,0.0168970674276351,0.3623664081096649,-0.0074202148243784,5.000000476837158,2.0,-3.299999952316284,0.0171767193824052,0.3636562526226043,-0.0074229100719094,RXEM1-000036,1,-20.0,1.701269989752603,1.4210854715202004e-14,0.3118325224519296,1.4210854715202004e-14,0.7763323820733774,1.4210854715202004e-14,1.585699238665164,0.023756790123460325,2.644562194113419,0.043623148148153934,3.1535678595432657,0.10935154320986529,4.788642427776388,0.2035450617283565,7.646663883169715
27570000000.0,-7.734260000000002,-2.8231,45.72742009010354,-369.8541472200262,-82.71,-394.3171999999999,-12.528033333333337,34.0752,0.0168970674276351,0.3623664081096649,-0.0074202148243784,5.000000476837158,2.0,-3.299999952316284,0.0171767193824052,0.3636562526226043,-0.0074229100719094,RXEM1-000036,1,-20.0,1.701269989752603,1.4210854715202004e-14,0.33878359984429096,1.4210854715202004e-14,0.8290718181884387,1.4210854715202004e-14,1.7317893304212646,0.026333950617263735,2.7725793802479473,0.048567283950625484,3.2417476668319978,0.10935154320986529,4.820858471441149,0.2035450617283565,7.646663883169715
27580000000.0,-7.552340000000002,-6.6035,45.78607226369538,-375.9787191831356,-85.5716,-432.7883999999999,-12.595260000000001,34.8522,0.0168970674276351,0.3623664081096649,-0.0074202148243784,5.000000476837158,2.0,-3.299999952316284,0.0171767193824052,0.3636562526226043,-0.0074229100719094,RXEM1-000036,1,-20.0,1.701269989752603,7.327471962526033e-15,0.36979645823617346,1.4210854715202004e-14,0.897365345183367,1.4210854715202004e-14,1.8704320868924995,0.0319759259259611,2.8828130473875646,0.05186728395064044,3.338154929258458,0.11464259259258758,4.8326114061405505,0.2035450617283565,7.646663883169715
27590000000.0,-7.459940000000001,-3.2857,45.85826262955002,-382.10329114624494,-79.8939,-431.0973,-12.647120000000001,34.7892,0.0168970674276351,0.3623664081096649,-0.0074202148243784,5.000000476837158,2.0,-3.299999952316284,0.0171767193824052,0.3636562526226043,-0.0074229100719094,RXEM1-000036,1,-20.0,1.7012699897525956,7.327471962526033e-15,0.41435241606246365,1.4210854715202004e-14,0.9667552143937002,4.929390229335695e-14,1.9941161600039337,0.03851111111114136,2.982179838238544,0.06116327160496304,3.419053367099025,0.12441450617282857,4.838075705245302,0.2035450617283565,7.646663883169715
27600000000.0,-7.402053333333334,-5.288,45.945543701277536,-388.2278631093543,-96.2203,-431.1574,-12.705500000000002,35.058,0.0168970674276351,0.3623664081096649,-0.0074202148243784,5.000000476837158,2.0,-3.299999952316284,0.0171767193824052,0.3636562526226043,-0.0074229100719094,RXEM1-000036,1,-20.0,1.7012699897525956,7.327471962526033e-15,0.4687696729208355,1.4210854715202004e-14,1.0244883857484268,0.007639007221966088,2.1285266859811642,0.043623148148153934,3.07291780616481,0.0716796296296236,3.5149260123014017,0.12712469135796778,4.838075705245302,0.2035450617283565,7.646663883169715
27610000000.0,-7.344646666666668,-3.8085,46.03688655400457,-394.35243507246366,-87.4032,-445.8109,-12.762913333333334,34.9813,0.0168970674276351,0.3623664081096649,-0.0074202148243784,5.000000476837158,2.0,-3.299999952316284,0.0171767193824052,0.3636562526226043,-0.0074229100719094,RXEM1-000036,1,-20.0,1.701269989752603,1.4210854715202004e-14,0.5252028283962815,1.4210854715202004e-14,1.0986411863029701,0.01715424901190965,2.2670436096975877,0.043623148148153934,3.1535678595432657,0.0729438271605074,3.6141468968097143,0.12999783950614408,4.838075705245302,0.2035450617283565,7.646663883169715
27620000000.0,-7.321700000000001,-8.2703,46.14177250616601,-400.477007035573,-81.2409,-448.2065,-12.808213333333335,35.9706,0.0168970674276351,0.3623664081096649,-0.0074202148243784,5.000000476837158,2.0,-3.299999952316284,0.0171767193824052,0.3636562526226043,-0.0074229100719094,RXEM1-000036,1,-20.0,1.701269989752603,1.4210854715202004e-14,0.5676416202142534,1.4210854715202004e-14,1.1633892783190944,0.01715424901190965,2.3922785487735823,0.048567283950625484,3.2417476668319978,0.0729438271605074,3.6882020837130156,0.13457901234570668,4.838075705245302,0.2035450617283565,7.646663883169715
27630000000.0,-7.417880000000001,-6.3225,46.25484193661622,-406.6015789986824,-85.2621,-490.1810999999999,-12.828000000000003,37.7564,0.0168970674276351,0.3623664081096649,-0.0074202148243784,5.000000476837158,2.0,-3.299999952316284,0.0171767193824052,0.3636562526226043,-0.0074229100719094,RXEM1-000036,1,-20.0,1.701269989752603,1.4210854715202004e-14,0.5943619331771046,1.4210854715202004e-14,1.2508271964833568,0.01849753086423722,2.4685072476582306,0.05186728395064044,3.338154929258458,0.07499969135803575,3.7634111728337345,0.13719753086418418,4.838075705245302,0.2035450617283565,7.646663883169715
27640000000.0,-7.465600000000001,-10.0397,46.3834654579463,-412.72615096179175,-78.5921,-480.2739,-12.814533333333335,37.855,0.0168970674276351,0.3623664081096649,-0.0074202148243784,5.000000476837158,2.0,-3.299999952316284,0.0171767193824052,0.3636562526226043,-0.0074229100719094,RXEM1-000036,1,-20.0,1.7012699897525887,1.4210854715202004e-14,0.6239587759053578,1.4210854715202004e-14,1.3172795870999536,0.023756790123460325,2.5239022054431146,0.06116327160496304,3.419053367099025,0.08040308641974958,3.8283618524867222,0.13719753086418418,4.838075705245302,0.2035450617283565,7.646663883169715
27650000000.0,-7.649893333333335,-14.2228,46.51318532149179,-418.85072292490105,-81.8619,-485.8591,-12.794506666666667,39.0287,0.0168970674276351,0.3623664081096649,-0.0074202148243784,5.000000476837158,2.0,-3.299999952316284,0.0171767193824052,0.3636562526226043,-0.0074229100719094,RXEM1-000036,1,-20.0,1.7012699897525887,1.4210854715202004e-14,0.6359674318064208,4.929390229335695e-14,1.3536825884838706,0.026333950617263735,2.591589397242487,0.0716796296296236,3.5149260123014017,0.08040308641974958,3.8967940378589176,0.13719753086418418,4.838075705245302,0.2035450617283565,7.646663883169715
27660000000.0,-7.8932600000000015,-18.3559,46.63124848718167,-424.9752948880104,-78.7732,-500.6459999999999,-12.768520000000002,39.9027,0.0168970674276351,0.3623664081096649,-0.0074202148243784,5.000000476837158,2.0,-3.299999952316284,0.0171767193824052,0.3636562526226043,-0.0074229100719094,RXEM1-000036,1,-20.0,1.701269989752603,1.4210854715202004e-14,0.6534340022324372,0.007639007221966088,1.39675026173407,0.0319759259259611,2.6414930700469483,0.0729438271605074,3.6141468968097143,0.08040308641974958,3.9637195940178387,0.13719753086418418,4.838075705245302,0.2035450617283565,7.646663883169715
27670000000.0,-8.191140000000003,-20.725,46.765731282071364,-431.09986685111977,-85.4586,-528.5514999999999,-12.758120000000002,41.4128,0.0168970674276351,0.3623664081096649,-0.0074202148243784,5.000000476837158,2.0,-3.299999952316284,0.0171767193824052,0.3636562526226043,-0.0074229100719094,RXEM1-000036,1,-20.0,1.701269989752603,1.4210854715202004e-14,0.6623568951581831,0.01715424901190965,1.4303812332890544,0.03851111111114136,2.6805298665627717,0.0729438271605074,3.6882020837130156,0.08040308641974958,4.018468316586748,0.13719753086418418,4.838075705245302,0.2035450617283565,7.646663883169715
27680000000.0,-8.517286666666669,-21.7482,46.89080936842264,-437.22443881422913,-81.9739,-561.3158999999999,-12.75674,40.9608,0.0168970674276351,0.3623664081096649,-0.0074202148243784,5.000000476837158,2.0,-3.299999952316284,0.0171767193824052,0.3636562526226043,-0.0074229100719094,RXEM1-000036,1,-20.0,1.701269989752603,4.929390229335695e-14,0.6679778025797347,0.01715424901190965,1.442546741914839,0.043623148148153934,2.710937840153889,0.07499969135803575,3.7634111728337345,0.08040308641974958,4.084256371687928,0.13719753086418418,4.838075705245302,0.2035450617283565,7.646663883169715
27690000000.0,-8.919073333333333,-22.4588,47.03689946017874,-443.3490107773385,-83.3986,-535.9304000000001,-12.757633333333334,41.4716,0.0168970674276351,0.3623664081096649,-0.0074202148243784,5.000000476837158,2.0,-3.299999952316284,0.0171767193824052,0.3636562526226043,-0.0074229100719094,RXEM1-000036,1,-20.0,1.701269989752603,0.007639007221966088,0.6679055336672732,0.01849753086423722,1.450481913804559,0.043623148148153934,2.731257899197196,0.08040308641974958,3.8283618524867222,0.08040308641974958,4.151889752130728,0.13719753086418418,4.838075705245302,0.2035450617283565,7.646663883169715
27700000000.0,-9.298873333333336,-24.7863,47.17554221664997,-449.47358274044785,-81.8159,-592.3802999999999,-12.764273333333337,41.7986,0.0168970674276351,0.3623664081096649,-0.0074202148243784,5.000000476837158,2.0,-3.299999952316284,0.0171767193824052,0.3636562526226043,-0.0074229100719094,RXEM1-000036,1,-20.0,1.7012699897525887,0.01715424901190965,0.6813443710324236,0.023756790123460325,1.4364870023791028,0.048567283950625484,2.76078553289409,0.08040308641974958,3.836464043523762,0.08040308641974958,4.237492659524314,0.13719753086418418,4.838075705245302,0.2035450617283565,7.646663883169715
27710000000.0,-9.706386666666669,-22.8301,47.29922628976141,-455.59815470355716,-83.2142,-584.4241000000001,-12.780693333333335,41.4384,0.0168970674276351,0.3623664081096649,-0.0074202148243784,5.000000476837158,2.0,-3.299999952316284,0.0171767193824052,0.3636562526226043,-0.0074229100719094,RXEM1-000036,1,-20.0,1.701269989752638,0.01715424901190965,0.6604892183523177,0.026333950617263735,1.4464410228237483,0.05186728395064044,2.785002429465912,0.08040308641974958,3.843059605347534,0.08040308641974958,4.327897521707527,0.13719753086418418,4.838075705245302,0.2035450617283565,7.646663883169715
27720000000.0,-10.140400000000001,-28.3095,47.43363681573864,-461.7227266666669,-83.6561,-590.2368,-12.821853333333335,41.5113,0.0168970674276351,0.3623664081096649,-0.0074202148243784,5.000000476837158,2.0,-3.299999952316284,0.0171767193824052,0.3636562526226043,-0.0074229100719094,RXEM1-000036,1,-20.0,1.693630982530672,0.01849753086423722,0.6584051551008869,0.0319759259259611,1.4221918950736736,0.06116327160496304,2.7786197955789618,0.08040308641974958,3.837478333581288,0.08040308641974958,4.3919967306392,0.13719753086418418,4.838075705245302,0.2035450617283565,7.646663883169715
27730000000.0,-10.759633333333335,-35.9992,47.57215373945506,-467.792297777778,-84.3671,-523.4787,-12.854466666666669,41.5973,0.0168970674276351,0.3623664081096649,-0.0074202148243784,5.000000476837158,2.0,-3.299999952316284,0.0171767193824052,0.3636562526226043,-0.0074229100719094,RXEM1-000036,1,-20.0,1.6841157407407283,0.023756790123460325,0.6504460341094855,0.03851111111114136,1.3964805995733798,0.0716796296296236,2.7831495880543073,0.08040308641974958,3.842936394347312,0.08040308641974958,4.45811056974884,0.13719753086418418,4.874713814276312,0.2035450617283565,7.646663883169715
27740000000.0,-11.246446666666671,-45.3882,47.697388678531055,-473.8483600000001,-78.0682,-606.4063,-12.893300000000004,42.5423,0.0168970674276351,0.3623664081096649,-0.0074202148243784,5.000000476837158,2.0,-3.299999952316284,0.0171767193824052,0.3636562526226043,-0.0074229100719094,RXEM1-000036,1,-20.0,1.6890567901234517,0.026333950617263735,0.644052694266783,0.043623148148153934,1.3411284757435453,0.0729438271605074,2.777484520401181,0.08040308641974958,3.850239780454956,0.08040308641974958,4.512082679495741,0.13719753086418418,4.920564080857083,0.2035450617283565,7.646663883169715
27750000000.0,-11.718620000000003,-50.5371,47.83394737175086,-479.95350666666684,-80.5874,-599.0627,-12.930600000000002,41.9137,0.0168970674276351,0.3623664081096649,-0.0074202148243784,5.000000476837158,2.0,-3.299999952316284,0.0171767193824052,0.3636562526226043,-0.0074229100719094,RXEM1-000036,1,-20.0,1.7026132716049656,0.0319759259259611,0.6157694376899769,0.043623148148153934,1.2831357726507662,0.0729438271605074,2.7384702768542724,0.08040308641974958,3.875512693513393,0.08040308641974958,4.498780545834215,0.13719753086418418,4.972408078539644,0.2035450617283565,7.646663883169715
27760000000.0,-12.104993333333335,-59.75220000000001,47.94967232387089,-486.10717555555584,-81.5504,-613.787,-12.968973333333334,40.6042,0.0168970674276351,0.3623664081096649,-0.0074202148243784,5.000000476837158,2.0,-3.299999952316284,0.0171767193824052,0.3636562526226043,-0.0074229100719094,RXEM1-000036,1,-20.0,1.7078725308641887,0.03357006172841803,0.5899012894649616,0.048567283950625484,1.2476315068280641,0.07499969135803575,2.685055844644907,0.08040308641974958,3.9055875613614575,0.08040308641974958,4.468833853245577,0.13719753086418418,5.046201962215072,0.2035450617283565,7.646663883169715
27770000000.0,-12.446833333333336,-59.8054,48.07768951000542,-492.250188888889,-80.0363,-616.2862,-13.033093333333335,39.7474,0.0168970674276351,0.3623664081096649,-0.0074202148243784,5.000000476837158,2.0,-3.299999952316284,0.0171767193824052,0.3636562526226043,-0.0074229100719094,RXEM1-000036,1,-20.0,1.710449691357992,0.025125617283916712,0.5440805641714235,0.05186728395064044,1.2096282432772938,0.08040308641974958,2.620286660752406,0.08040308641974958,3.911034596701292,0.08040308641974958,4.451442669148371,0.13719753086418418,5.148417811401863,0.2035450617283565,7.646663883169715
27780000000.0,-12.612080000000002,-56.6856,48.18792317714504,-498.4224133333334,-80.5779,-622.6495,-13.137120000000001,38.6694,0.0168970674276351,0.3623664081096649,-0.0074202148243784,5.000000476837158,2.0,-3.299999952316284,0.0171767193824052,0.3636562526226043,-0.0074229100719094,RXEM1-000036,1,-20.0,1.7160916666666894,0.01986635802469361,0.5090056654298465,0.06116327160496304,1.1520097574014372,0.08040308641974958,2.5706556804347187,0.08040308641974958,3.904958069956294,0.08040308641974958,4.42603575659335,0.13719753086418418,5.248045182081022,0.2035450617283565,7.646663883169715
27790000000.0,-12.783493333333336,-66.8009,48.28728996799602,-504.6060488888892,-78.1703,-617.41,-13.271213333333336,36.6006,0.0168970674276351,0.3623664081096649,-0.0074202148243784,5.000000476837158,2.0,-3.299999952316284,0.0171767193824052,0.3636562526226043,-0.0074229100719094,RXEM1-000036,1,-20.0,1.7226268518518697,0.02223333333336175,0.4691682865840505,0.06673858024690027,1.1226474635278194,0.08040308641974958,2.5030984417039477,0.08040308641974958,3.871649107975678,0.08975092592588418,4.418856997462598,0.1438876543209664,5.363539397159904,0.2035450617283565,7.646663883169715
27800000000.0,-12.818753333333337,-81.7589,48.37802793592228,-510.8253266666669,-86.251,-656.77,-13.43398666666667,34.3238,0.0168970674276351,0.3623664081096649,-0.0074202148243784,5.000000476837158,2.0,-3.299999952316284,0.0171767193824052,0.3636562526226043,-0.0074229100719094,RXEM1-000036,1,-20.0,1.7277388888888823,0.01989135802467934,0.4553418818708934,0.05444629629627018,1.085309654816328,0.08040308641974958,2.4327690779215843,0.08040308641974958,3.8273341159222767,0.10316327160494954,4.39858301177113,0.15958364197527763,5.496376974513389,0.2035450617283565,7.646663883169715
27810000000.0,-12.984033333333334,-89.7254,48.45867798930074,-517.0457688888891,-84.1707,-643.6632,-13.637453333333337,33.0604,0.0168970674276351,0.3623664081096649,-0.0074202148243784,5.000000476837158,2.0,-3.299999952316284,0.0171767193824052,0.3636562526226043,-0.0074229100719094,RXEM1-000036,1,-20.0,1.7269163580246865,0.022652160493821683,0.43687352886048103,0.04918703703704708,1.0436398895995964,0.08040308641974958,2.3524670412666637,0.08040308641974958,3.7528314655073487,0.10935154320986529,4.366332467430318,0.16721296296295907,5.646268536344714,0.2035450617283565,7.646663883169715
