! ADC = 0
! IdxASIC = 7
! RefDesDBF = 213
# Hz S DB R 50
! freq             S11(dB)       S11(deg)
1e+08             -0.734846     158.272
1.1e+08           -0.717298     156.082
1.2e+08           -0.62307      153.764
1.3e+08           -0.544587     151.366
1.4e+08           -0.45078      149.039
1.5e+08           -0.363849     146.659
1.6e+08           -0.3504       144.416
1.7e+08           -0.348976     142.221
1.8e+08           -0.377972     140.097
1.9e+08           -0.430073     137.983
2e+08             -0.500084     135.876
2.1e+08           -0.584311     133.729
2.2e+08           -0.625938     131.605
2.3e+08           -0.573783     129.264
2.4e+08           -0.527995     126.878
2.5e+08           -0.476776     124.506
2.6e+08           -0.432478     122.189
2.7e+08           -0.415539     119.928
2.8e+08           -0.422718     117.796
2.9e+08           -0.449831     115.673
3e+08             -0.484738     113.531
3.1e+08           -0.539032     111.336
3.2e+08           -0.588088     109.098
3.3e+08           -0.604838     106.823
3.4e+08           -0.602583     104.467
3.5e+08           -0.564192     102.062
3.6e+08           -0.509416     99.6681
3.7e+08           -0.48114      97.368
3.8e+08           -0.466688     95.1251
3.9e+08           -0.471677     92.9066
4e+08             -0.490041     90.6358
4.1e+08           -0.529752     88.3721
4.2e+08           -0.568964     86.1789
4.3e+08           -0.600704     83.8295
4.4e+08           -0.607287     81.522
4.5e+08           -0.597477     79.1581
4.6e+08           -0.573137     76.8226
4.7e+08           -0.555849     74.3785
4.8e+08           -0.521535     71.925
4.9e+08           -0.500667     69.5756
5e+08             -0.497275     67.2955
5.1e+08           -0.533024     65.0501
5.2e+08           -0.565173     62.7779
5.3e+08           -0.585458     60.3072
5.4e+08           -0.602157     57.9051
5.5e+08           -0.613769     55.5262
5.6e+08           -0.606404     53.0944
5.7e+08           -0.595318     50.6042
5.8e+08           -0.577878     48.0886
5.9e+08           -0.544811     45.5309
6e+08             -0.518205     43.056
6.1e+08           -0.514782     40.7253
6.2e+08           -0.539139     38.4614
6.3e+08           -0.574633     36.0145
6.4e+08           -0.609        33.3638
6.5e+08           -0.614339     30.7511
6.6e+08           -0.598822     28.2079
6.7e+08           -0.595813     25.7717
6.8e+08           -0.601787     23.25
6.9e+08           -0.588384     20.5919
7e+08             -0.553801     17.8771
7.1e+08           -0.509847     15.3761
7.2e+08           -0.494338     13.0803
7.3e+08           -0.52387      10.7544
7.4e+08           -0.578102     8.06966
7.5e+08           -0.603628     5.25735
7.6e+08           -0.597632     2.51207
7.7e+08           -0.593781     -0.0353349
7.8e+08           -0.611435     -2.60445
7.9e+08           -0.622785     -5.4378
8e+08             -0.590428     -8.44547
8.1e+08           -0.506114     -11.3777
8.2e+08           -0.423897     -14.1391
8.3e+08           -0.390631     -16.8264
8.4e+08           -0.408519     -19.6789
8.5e+08           -0.448058     -22.6123
8.6e+08           -0.469811     -25.371
8.7e+08           -0.485585     -27.785
8.8e+08           -0.511739     -29.9416
8.9e+08           -0.562342     -32.2935
9e+08             -0.619847     -34.9173
9.1e+08           -0.651321     -37.7585
9.2e+08           -0.665012     -40.7368
9.3e+08           -0.661124     -43.5379
9.4e+08           -0.670851     -46.2301
9.5e+08           -0.687819     -48.9672
9.6e+08           -0.698864     -51.7902
9.7e+08           -0.692255     -54.858
9.8e+08           -0.663005     -57.8107
9.9e+08           -0.629517     -60.6105
1e+09             -0.619329     -63.3299
1.01e+09          -0.62636      -66.0451
1.02e+09          -0.631741     -68.8821
1.03e+09          -0.632938     -71.7867
1.04e+09          -0.623722     -74.6344
1.05e+09          -0.624482     -77.3953
1.06e+09          -0.639342     -80.1519
1.07e+09          -0.657922     -83.0059
1.08e+09          -0.679288     -85.9424
1.09e+09          -0.677206     -88.9309
1.1e+09           -0.664645     -91.851
1.11e+09          -0.655462     -94.5682
1.12e+09          -0.653377     -97.2571
1.13e+09          -0.673131     -99.9957
1.14e+09          -0.683187     -102.911
1.15e+09          -0.672012     -105.814
1.16e+09          -0.662588     -108.522
1.17e+09          -0.673799     -111.198
1.18e+09          -0.703859     -113.937
1.19e+09          -0.726312     -116.925
1.2e+09           -0.717551     -119.955
1.21e+09          -0.696752     -122.744
1.22e+09          -0.692778     -125.392
1.23e+09          -0.711816     -128.107
1.24e+09          -0.734257     -131.008
1.25e+09          -0.722643     -133.934
1.26e+09          -0.70152      -136.643
1.27e+09          -0.699326     -139.213
1.28e+09          -0.717489     -141.796
1.29e+09          -0.748957     -144.543
1.3e+09           -0.748741     -147.411
1.31e+09          -0.731737     -150.147
1.32e+09          -0.72512      -152.703
1.33e+09          -0.734784     -155.248
1.34e+09          -0.755446     -157.903
1.35e+09          -0.766341     -160.702
1.36e+09          -0.754373     -163.469
1.37e+09          -0.737088     -166.069
1.38e+09          -0.735685     -168.575
1.39e+09          -0.756691     -171.094
1.4e+09           -0.775404     -173.767
1.41e+09          -0.767654     -176.47
1.42e+09          -0.753169     -179.034
1.43e+09          -0.752004     178.511
1.44e+09          -0.769965     176.03
1.45e+09          -0.789082     173.45
1.46e+09          -0.787081     170.747
1.47e+09          -0.763565     168.253
1.48e+09          -0.748725     165.891
1.49e+09          -0.755205     163.521
1.5e+09           -0.774047     161.055
1.51e+09          -0.771759     158.515
1.52e+09          -0.754985     156.067
1.53e+09          -0.754211     153.736
1.54e+09          -0.770809     151.381
1.55e+09          -0.784566     148.888
1.56e+09          -0.78778      146.413
1.57e+09          -0.782797     144.019
1.58e+09          -0.784291     141.668
1.59e+09          -0.787682     139.28
1.6e+09           -0.785659     136.88
1.61e+09          -0.785372     134.594
1.62e+09          -0.789932     132.338
1.63e+09          -0.799584     130.096
1.64e+09          -0.80356      127.798
1.65e+09          -0.80602      125.576
1.66e+09          -0.812346     123.473
1.67e+09          -0.84112      121.352
1.68e+09          -0.861463     119.072
1.69e+09          -0.860095     116.686
1.7e+09           -0.838077     114.461
1.71e+09          -0.831484     112.353
1.72e+09          -0.835653     110.285
1.73e+09          -0.838093     108.152
1.74e+09          -0.830915     105.97
1.75e+09          -0.818514     103.894
1.76e+09          -0.817258     101.821
1.77e+09          -0.822098     99.7394
1.78e+09          -0.826261     97.6399
1.79e+09          -0.82768      95.5451
1.8e+09           -0.82143      93.4376
1.81e+09          -0.816107     91.3183
1.82e+09          -0.81317      89.2119
1.83e+09          -0.803128     87.2431
1.84e+09          -0.794543     85.2532
1.85e+09          -0.797084     83.2557
1.86e+09          -0.791542     81.2036
1.87e+09          -0.778755     79.2003
1.88e+09          -0.776241     77.2979
1.89e+09          -0.788812     75.364
1.9e+09           -0.802927     73.3201
1.91e+09          -0.79401      71.1567
1.92e+09          -0.778248     69.1082
1.93e+09          -0.766241     67.257
1.94e+09          -0.768891     65.265
1.95e+09          -0.765756     63.2586
1.96e+09          -0.750222     61.2932
1.97e+09          -0.724048     59.4793
1.98e+09          -0.72223      57.6921
1.99e+09          -0.742884     55.7813
2e+09             -0.749352     53.7463
2.01e+09          -0.741152     51.7477
2.02e+09          -0.736802     49.8769
2.03e+09          -0.743106     47.9051
2.04e+09          -0.743001     45.8824
2.05e+09          -0.722214     43.8602
2.06e+09          -0.697755     42.0522
2.07e+09          -0.684779     40.3349
2.08e+09          -0.68884      38.548
2.09e+09          -0.691066     36.6628
2.1e+09           -0.683316     34.808
2.11e+09          -0.678134     33.0792
2.12e+09          -0.690335     31.311
2.13e+09          -0.700205     29.4086
2.14e+09          -0.692625     27.4562
2.15e+09          -0.684295     25.5139
2.16e+09          -0.673296     23.7084
2.17e+09          -0.665777     21.802
2.18e+09          -0.656222     19.947
2.19e+09          -0.643051     18.1598
2.2e+09           -0.634451     16.3848
2.21e+09          -0.635928     14.5755
2.22e+09          -0.640582     12.7095
2.23e+09          -0.635979     10.9251
2.24e+09          -0.640371     9.22419
2.25e+09          -0.647754     7.4545
2.26e+09          -0.66995      5.53448
2.27e+09          -0.658304     3.61858
2.28e+09          -0.633707     1.71723
2.29e+09          -0.614973     0.0382419
2.3e+09           -0.618057     -1.72596
2.31e+09          -0.620329     -3.59003
2.32e+09          -0.613395     -5.43948
2.33e+09          -0.605556     -7.1625
2.34e+09          -0.612034     -8.83822
2.35e+09          -0.633394     -10.5988
2.36e+09          -0.640786     -12.4468
2.37e+09          -0.641862     -14.2404
2.38e+09          -0.637395     -16.0149
2.39e+09          -0.641521     -17.762
2.4e+09           -0.639952     -19.5315
2.41e+09          -0.641201     -21.3595
2.42e+09          -0.640276     -23.1371
2.43e+09          -0.642794     -24.9715
2.44e+09          -0.641358     -26.8316
2.45e+09          -0.624459     -28.5685
2.46e+09          -0.617584     -30.0936
2.47e+09          -0.639022     -31.6876
2.48e+09          -0.672687     -33.3784
2.49e+09          -0.678432     -35.3832
2.5e+09           -0.653652     -37.2117
2.51e+09          -0.627525     -38.8395
2.52e+09          -0.640049     -40.4424
2.53e+09          -0.67418      -42.3199
2.54e+09          -0.676646     -44.3499
2.55e+09          -0.650169     -46.2
2.56e+09          -0.6285       -47.7412
2.57e+09          -0.646096     -49.2525
2.58e+09          -0.675713     -51.0446
2.59e+09          -0.690974     -52.8952
2.6e+09           -0.665817     -54.6788
2.61e+09          -0.645767     -56.2967
2.62e+09          -0.664775     -57.8532
2.63e+09          -0.688996     -59.6517
2.64e+09          -0.696153     -61.5633
2.65e+09          -0.687853     -63.4317
2.66e+09          -0.673655     -65.1606
2.67e+09          -0.668998     -66.8099
2.68e+09          -0.679605     -68.4498
2.69e+09          -0.69996      -70.1319
2.7e+09           -0.719175     -71.92
2.71e+09          -0.721331     -73.7921
2.72e+09          -0.706248     -75.513
2.73e+09          -0.69522      -77.1321
2.74e+09          -0.71727      -78.7462
2.75e+09          -0.743548     -80.5947
2.76e+09          -0.742429     -82.5599
2.77e+09          -0.719898     -84.3863
2.78e+09          -0.70902      -85.9532
2.79e+09          -0.730715     -87.459
2.8e+09           -0.762708     -89.1975
2.81e+09          -0.781965     -91.1036
2.82e+09          -0.779163     -92.9277
2.83e+09          -0.761901     -94.6167
2.84e+09          -0.777991     -96.3627
2.85e+09          -0.788966     -98.1452
2.86e+09          -0.784864     -100.023
2.87e+09          -0.775965     -101.835
2.88e+09          -0.778129     -103.593
2.89e+09          -0.771844     -105.311
2.9e+09           -0.76982      -106.96
2.91e+09          -0.782724     -108.584
2.92e+09          -0.810585     -110.231
2.93e+09          -0.844598     -112.09
2.94e+09          -0.846387     -114.088
2.95e+09          -0.82374      -116.021
2.96e+09          -0.808721     -117.724
2.97e+09          -0.827666     -119.499
2.98e+09          -0.856006     -121.524
2.99e+09          -0.851375     -123.637
3e+09             -0.815274     -125.502
3.01e+09          -0.801169     -127.049
3.02e+09          -0.833081     -128.58
3.03e+09          -0.889104     -130.397
3.04e+09          -0.907641     -132.508
3.05e+09          -0.892686     -134.506
3.06e+09          -0.879652     -136.303
3.07e+09          -0.88916      -138.047
3.08e+09          -0.921808     -140.031
3.09e+09          -0.940608     -142.202
3.1e+09           -0.924755     -144.351
3.11e+09          -0.900233     -146.274
3.12e+09          -0.890174     -147.933
3.13e+09          -0.91668      -149.561
3.14e+09          -0.961439     -151.49
3.15e+09          -1.01271      -153.619
3.16e+09          -1.01544      -155.852
3.17e+09          -0.988995     -157.821
3.18e+09          -0.990813     -159.583
3.19e+09          -1.03218      -161.559
3.2e+09           -1.07887      -163.861
3.21e+09          -1.08086      -166.307
3.22e+09          -1.04156      -168.458
3.23e+09          -1.02277      -170.184
3.24e+09          -1.06757      -171.901
3.25e+09          -1.135        -173.982
3.26e+09          -1.15513      -176.272
3.27e+09          -1.14614      -178.453
3.28e+09          -1.14677      179.629
3.29e+09          -1.20205      177.557
3.3e+09           -1.25107      175.14
3.31e+09          -1.27234      172.56
3.32e+09          -1.25556      170.169
3.33e+09          -1.24612      167.987
3.34e+09          -1.2752       165.853
3.35e+09          -1.31049      163.623
3.36e+09          -1.33375      161.355
3.37e+09          -1.36594      159.123
3.38e+09          -1.40883      156.873
3.39e+09          -1.45515      154.453
3.4e+09           -1.47608      151.901
3.41e+09          -1.50188      149.445
3.42e+09          -1.53718      146.922
3.43e+09          -1.57236      144.268
3.44e+09          -1.59902      141.528
3.45e+09          -1.60922      138.968
3.46e+09          -1.64074      136.618
3.47e+09          -1.7072       134.171
3.48e+09          -1.78986      131.46
3.49e+09          -1.83839      128.584
3.5e+09           -1.86858      125.716
3.51e+09          -1.90055      122.987
3.52e+09          -1.95056      120.244
3.53e+09          -2.01476      117.305
3.54e+09          -2.07228      114.186
3.55e+09          -2.12686      111.013
3.56e+09          -2.16548      107.916
3.57e+09          -2.21834      104.954
3.58e+09          -2.28838      102.102
3.59e+09          -2.4053       99.0626
3.6e+09           -2.50986      95.6808
3.61e+09          -2.56565      92.0683
3.62e+09          -2.59777      88.7921
3.63e+09          -2.64426      85.7193
3.64e+09          -2.76859      82.5009
3.65e+09          -2.89718      78.7044
3.66e+09          -2.96646      74.6773
3.67e+09          -2.98755      71.0747
3.68e+09          -3.07989      67.8927
3.69e+09          -3.23607      64.4425
3.7e+09           -3.39996      60.3789
3.71e+09          -3.46245      56.113
3.72e+09          -3.48761      52.2531
3.73e+09          -3.57244      48.7566
3.74e+09          -3.72781      44.9403
3.75e+09          -3.85924      40.5537
3.76e+09          -3.92747      36.0592
3.77e+09          -3.97696      31.9445
3.78e+09          -4.07937      27.9728
3.79e+09          -4.19993      23.7052
3.8e+09           -4.28955      19.1712
3.81e+09          -4.36786      14.7566
3.82e+09          -4.42278      10.2971
3.83e+09          -4.48448      5.8789
3.84e+09          -4.52859      1.4717
3.85e+09          -4.56909      -2.9834
3.86e+09          -4.62125      -7.43527
3.87e+09          -4.6727       -12.0622
3.88e+09          -4.6938       -16.8152
3.89e+09          -4.6798       -21.4071
3.9e+09           -4.69862      -25.8768
3.91e+09          -4.70887      -30.475
3.92e+09          -4.71027      -35.2712
3.93e+09          -4.64797      -39.8787
3.94e+09          -4.57407      -44.2615
3.95e+09          -4.53057      -48.5502
3.96e+09          -4.49164      -52.9767
3.97e+09          -4.44865      -57.3837
3.98e+09          -4.37846      -61.7656
3.99e+09          -4.32966      -66.0927
4e+09             -4.26272      -70.7448
4.01e+09          -4.16404      -75.1312
4.02e+09          -4.03875      -79.3014
4.03e+09          -3.95967      -83.2719
4.04e+09          -3.89746      -87.4551
4.05e+09          -3.79472      -91.7418
4.06e+09          -3.64022      -95.6461
4.07e+09          -3.53524      -99.1501
4.08e+09          -3.48552      -102.743
4.09e+09          -3.44403      -106.883
4.1e+09           -3.33611      -111.135
4.11e+09          -3.17943      -114.826
4.12e+09          -3.08658      -118.14
4.13e+09          -3.04125      -121.662
4.14e+09          -2.96632      -125.521
4.15e+09          -2.82269      -129.148
4.16e+09          -2.69224      -132.152
4.17e+09          -2.63123      -134.977
4.18e+09          -2.61353      -138.156
4.19e+09          -2.55846      -141.68
4.2e+09           -2.45817      -145.06
4.21e+09          -2.36394      -148.1
4.22e+09          -2.31448      -151.112
4.23e+09          -2.27301      -154.239
4.24e+09          -2.20217      -157.242
4.25e+09          -2.11915      -160.124
4.26e+09          -2.05395      -162.854
4.27e+09          -2.00339      -165.498
4.28e+09          -1.93686      -168.119
4.29e+09          -1.89321      -170.631
4.3e+09           -1.87477      -173.199
4.31e+09          -1.84677      -175.998
4.32e+09          -1.7975       -178.753
4.33e+09          -1.7381       178.692
4.34e+09          -1.69879      176.32
4.35e+09          -1.69464      173.715
4.36e+09          -1.65218      171.117
4.37e+09          -1.57781      168.773
4.38e+09          -1.51909      166.764
4.39e+09          -1.51885      164.726
4.4e+09           -1.52558      162.417
4.41e+09          -1.49626      160.033
4.42e+09          -1.44666      157.797
4.43e+09          -1.42529      155.805
4.44e+09          -1.42792      153.633
4.45e+09          -1.43868      151.188
4.46e+09          -1.37738      148.956
4.47e+09          -1.32656      147.088
4.48e+09          -1.32216      145.311
4.49e+09          -1.33233      143.299
4.5e+09           -1.3141       141.177
4.51e+09          -1.26413      139.269
4.52e+09          -1.24321      137.546
4.53e+09          -1.27472      135.738
4.54e+09          -1.28475      133.608
4.55e+09          -1.26367      131.479
4.56e+09          -1.21467      129.549
4.57e+09          -1.2078       127.852
4.58e+09          -1.21056      126.055
4.59e+09          -1.2051       124.141
4.6e+09           -1.18212      122.371
4.61e+09          -1.16801      120.744
4.62e+09          -1.18209      119.087
4.63e+09          -1.17964      117.317
4.64e+09          -1.16021      115.507
4.65e+09          -1.15356      113.876
4.66e+09          -1.16094      112.325
4.67e+09          -1.15965      110.564
4.68e+09          -1.13953      108.761
4.69e+09          -1.11609      107.246
4.7e+09           -1.12596      105.758
4.71e+09          -1.1495       104.082
4.72e+09          -1.15619      102.273
4.73e+09          -1.12329      100.587
4.74e+09          -1.10097      99.2005
4.75e+09          -1.11888      97.8251
4.76e+09          -1.14876      96.235
4.77e+09          -1.13048      94.4448
4.78e+09          -1.09548      92.8793
4.79e+09          -1.07733      91.5394
4.8e+09           -1.10218      90.1611
4.81e+09          -1.10865      88.5952
4.82e+09          -1.10259      86.9925
4.83e+09          -1.10082      85.6059
4.84e+09          -1.12576      84.2866
4.85e+09          -1.1492       82.6514
4.86e+09          -1.13358      81.017
4.87e+09          -1.09664      79.5659
4.88e+09          -1.0718       78.3143
4.89e+09          -1.08924      76.9267
4.9e+09           -1.09058      75.3613
4.91e+09          -1.07435      73.8734
4.92e+09          -1.0556       72.6257
4.93e+09          -1.08591      71.3721
4.94e+09          -1.11835      69.8939
4.95e+09          -1.1111       68.2632
4.96e+09          -1.07679      66.8641
4.97e+09          -1.05919      65.7898
4.98e+09          -1.07799      64.5566
4.99e+09          -1.09716      63.0863
5e+09             -1.06023      61.4493
5.01e+09          -1.03098      60.246
5.02e+09          -1.02944      59.0866
