! ADC = 0
! IdxASIC = 4
! RefDesDBF = 208
# Hz S DB R 50
! freq             S11(dB)       S11(deg)
1e+08             -1.62577      -94.8436
1.1e+08           -1.8932       -103.295
1.2e+08           -2.21987      -111.001
1.3e+08           -2.57188      -118.462
1.4e+08           -2.8359       -126.225
1.5e+08           -2.95191      -134.298
1.6e+08           -3.00255      -141.971
1.7e+08           -3.01212      -148.813
1.8e+08           -3.14649      -155.544
1.9e+08           -3.31884      -162.171
2e+08             -3.52851      -168.825
2.1e+08           -3.76437      -175.285
2.2e+08           -3.97862      178.618
2.3e+08           -4.20226      172.29
2.4e+08           -4.36793      165.896
2.5e+08           -4.4967       159.721
2.6e+08           -4.5758       153.647
2.7e+08           -4.65667      147.705
2.8e+08           -4.79439      141.895
2.9e+08           -4.95914      136.194
3e+08             -5.14373      130.513
3.1e+08           -5.37877      124.833
3.2e+08           -5.59751      119.141
3.3e+08           -5.79783      113.41
3.4e+08           -5.96679      107.579
3.5e+08           -6.09515      101.817
3.6e+08           -6.20677      96.1751
3.7e+08           -6.32819      90.6484
3.8e+08           -6.49455      85.2464
3.9e+08           -6.69243      79.815
4e+08             -6.93277      74.3504
4.1e+08           -7.1947       68.9114
4.2e+08           -7.42689      63.4518
4.3e+08           -7.67862      57.6601
4.4e+08           -7.90523      51.9521
4.5e+08           -8.08576      46.3138
4.6e+08           -8.2589       40.8587
4.7e+08           -8.45888      35.3246
4.8e+08           -8.70323      29.9467
4.9e+08           -8.96751      24.559
5e+08             -9.24867      19.2539
5.1e+08           -9.59053      13.998
5.2e+08           -9.92144      8.51502
5.3e+08           -10.2112      2.7817
5.4e+08           -10.5065      -2.9553
5.5e+08           -10.7695      -8.63835
5.6e+08           -11.0366      -14.0481
5.7e+08           -11.3327      -19.3196
5.8e+08           -11.6591      -24.5178
5.9e+08           -11.9952      -29.6874
6e+08             -12.373       -34.7625
6.1e+08           -12.7862      -39.6611
6.2e+08           -13.2388      -44.8163
6.3e+08           -13.6607      -50.2221
6.4e+08           -14.0347      -55.6915
6.5e+08           -14.4075      -60.6672
6.6e+08           -14.7647      -65.1801
6.7e+08           -15.1593      -69.7643
6.8e+08           -15.6019      -73.9139
6.9e+08           -16.0418      -77.685
7e+08             -16.5017      -81.1399
7.1e+08           -17.0751      -84.2786
7.2e+08           -17.7147      -87.5972
7.3e+08           -18.3743      -91.1481
7.4e+08           -18.8373      -94.9276
7.5e+08           -19.2671      -97.6804
7.6e+08           -19.6728      -99.4575
7.7e+08           -20.0977      -100.697
7.8e+08           -20.4589      -101.616
7.9e+08           -20.6043      -101.603
8e+08             -20.6957      -100.187
8.1e+08           -20.8524      -97.3015
8.2e+08           -20.9903      -94.7586
8.3e+08           -21.0459      -92.6965
8.4e+08           -20.9043      -91.4271
8.5e+08           -20.5767      -90.6516
8.6e+08           -20.1344      -89.5477
8.7e+08           -19.8294      -88.75
8.8e+08           -19.4891      -89.3393
8.9e+08           -19.0871      -91.266
9e+08             -18.5888      -93.5179
9.1e+08           -18.0397      -95.4439
9.2e+08           -17.5146      -97.9966
9.3e+08           -17.0463      -100.569
9.4e+08           -16.5883      -103.739
9.5e+08           -16.0684      -107.191
9.6e+08           -15.5387      -110.553
9.7e+08           -14.9739      -113.823
9.8e+08           -14.4758      -116.815
9.9e+08           -14.046       -119.834
1e+09             -13.6638      -123.193
1.01e+09          -13.2936      -126.659
1.02e+09          -12.9404      -130.085
1.03e+09          -12.614       -133.685
1.04e+09          -12.3135      -137.29
1.05e+09          -12.0443      -141.184
1.06e+09          -11.7674      -145.051
1.07e+09          -11.4777      -148.908
1.08e+09          -11.1981      -152.733
1.09e+09          -10.9398      -156.438
1.1e+09           -10.6738      -160.093
1.11e+09          -10.4535      -163.672
1.12e+09          -10.2443      -167.226
1.13e+09          -10.0733      -170.922
1.14e+09          -9.87867      -174.654
1.15e+09          -9.70994      -178.276
1.16e+09          -9.5778       178.182
1.17e+09          -9.44959      174.445
1.18e+09          -9.32564      170.54
1.19e+09          -9.16773      166.734
1.2e+09           -9.00449      163.212
1.21e+09          -8.8897       159.849
1.22e+09          -8.79978      156.323
1.23e+09          -8.71679      152.698
1.24e+09          -8.60871      149.115
1.25e+09          -8.52098      145.842
1.26e+09          -8.47908      142.603
1.27e+09          -8.45187      139.121
1.28e+09          -8.41506      135.535
1.29e+09          -8.35788      131.953
1.3e+09           -8.29507      128.666
1.31e+09          -8.26881      125.55
1.32e+09          -8.27852      122.212
1.33e+09          -8.28084      118.723
1.34e+09          -8.26801      115.319
1.35e+09          -8.23768      112.055
1.36e+09          -8.24915      108.966
1.37e+09          -8.28292      105.922
1.38e+09          -8.33699      102.7
1.39e+09          -8.37668      99.3996
1.4e+09           -8.40095      96.2228
1.41e+09          -8.44234      93.2952
1.42e+09          -8.52776      90.4205
1.43e+09          -8.63116      87.3359
1.44e+09          -8.71894      84.0198
1.45e+09          -8.77845      80.8872
1.46e+09          -8.82561      77.9905
1.47e+09          -8.94256      75.4251
1.48e+09          -9.0988       72.6722
1.49e+09          -9.23611      69.6997
1.5e+09           -9.35921      66.8039
1.51e+09          -9.47632      64.2438
1.52e+09          -9.64991      61.8668
1.53e+09          -9.86157      59.2476
1.54e+09          -10.0514      56.3759
1.55e+09          -10.1906      53.811
1.56e+09          -10.3345      51.5235
1.57e+09          -10.5235      49.4472
1.58e+09          -10.7486      47.33
1.59e+09          -10.9652      45.1262
1.6e+09           -11.1596      43.1078
1.61e+09          -11.3651      41.2802
1.62e+09          -11.5873      39.7742
1.63e+09          -11.845       38.3071
1.64e+09          -12.0927      36.8417
1.65e+09          -12.3367      35.444
1.66e+09          -12.5784      34.1939
1.67e+09          -12.7987      32.9199
1.68e+09          -12.9893      32.0532
1.69e+09          -13.1426      31.3762
1.7e+09           -13.3301      31.0223
1.71e+09          -13.5034      30.4585
1.72e+09          -13.6291      29.941
1.73e+09          -13.696       29.6654
1.74e+09          -13.7457      29.7651
1.75e+09          -13.8201      29.7695
1.76e+09          -13.8774      29.529
1.77e+09          -13.887       29.0608
1.78e+09          -13.83        28.4664
1.79e+09          -13.7597      27.9148
1.8e+09           -13.639       27.3839
1.81e+09          -13.5269      26.6494
1.82e+09          -13.3764      25.7654
1.83e+09          -13.2299      24.8676
1.84e+09          -13.0729      23.8798
1.85e+09          -12.9207      22.594
1.86e+09          -12.7709      21.2534
1.87e+09          -12.6346      19.71
1.88e+09          -12.5276      17.9244
1.89e+09          -12.4001      15.7756
1.9e+09           -12.239       13.4763
1.91e+09          -12.0423      11.1934
1.92e+09          -11.8964      9.12002
1.93e+09          -11.8001      6.89748
1.94e+09          -11.687       4.27817
1.95e+09          -11.5614      1.63097
1.96e+09          -11.4497      -0.850749
1.97e+09          -11.4234      -3.23369
1.98e+09          -11.4242      -6.08044
1.99e+09          -11.4101      -9.47132
2e+09             -11.331       -12.901
2.01e+09          -11.2622      -16.0194
2.02e+09          -11.2581      -19.0183
2.03e+09          -11.2565      -22.5309
2.04e+09          -11.239       -26.1313
2.05e+09          -11.2045      -29.4916
2.06e+09          -11.2175      -32.6028
2.07e+09          -11.313       -35.8192
2.08e+09          -11.4217      -39.5334
2.09e+09          -11.5239      -43.4703
2.1e+09           -11.6272      -47.5046
2.11e+09          -11.7555      -51.5177
2.12e+09          -11.88        -55.7905
2.13e+09          -11.9939      -60.2478
2.14e+09          -12.1068      -64.5847
2.15e+09          -12.2416      -69.0779
2.16e+09          -12.4021      -73.5116
2.17e+09          -12.5585      -77.9126
2.18e+09          -12.7769      -82.4212
2.19e+09          -13.0615      -87.2295
2.2e+09           -13.3583      -92.7133
2.21e+09          -13.5904      -98.5483
2.22e+09          -13.7857      -104.315
2.23e+09          -14.0446      -110.025
2.24e+09          -14.346       -116.371
2.25e+09          -14.5696      -123.077
2.26e+09          -14.6973      -129.918
2.27e+09          -14.8868      -136.133
2.28e+09          -15.1573      -142.513
2.29e+09          -15.4575      -150.066
2.3e+09           -15.6733      -158.236
2.31e+09          -15.7318      -166.459
2.32e+09          -15.7558      -174.58
2.33e+09          -15.7611      177.249
2.34e+09          -15.7181      168.961
2.35e+09          -15.5931      160.631
2.36e+09          -15.4179      152.646
2.37e+09          -15.1805      144.809
2.38e+09          -14.9439      137.523
2.39e+09          -14.711       130.462
2.4e+09           -14.4715      123.122
2.41e+09          -14.1992      115.761
2.42e+09          -13.8096      108.707
2.43e+09          -13.4115      102.736
2.44e+09          -13.0879      97.2209
2.45e+09          -12.825       91.176
2.46e+09          -12.4969      85.1167
2.47e+09          -12.096       79.6107
2.48e+09          -11.7359      74.7811
2.49e+09          -11.499       70.1708
2.5e+09           -11.2754      65.129
2.51e+09          -10.989       59.9172
2.52e+09          -10.6697      55.2241
2.53e+09          -10.4086      51.0286
2.54e+09          -10.1966      46.8459
2.55e+09          -9.99291      42.377
2.56e+09          -9.77391      38.0386
2.57e+09          -9.54875      33.9746
2.58e+09          -9.3713       30.0997
2.59e+09          -9.20909      26.2611
2.6e+09           -9.05152      22.3035
2.61e+09          -8.88862      18.462
2.62e+09          -8.75458      14.7974
2.63e+09          -8.63469      11.0719
2.64e+09          -8.49839      7.44165
2.65e+09          -8.37309      3.98613
2.66e+09          -8.27216      0.567936
2.67e+09          -8.19486      -2.89635
2.68e+09          -8.12105      -6.41012
2.69e+09          -8.03785      -9.78731
2.7e+09           -7.97888      -12.9784
2.71e+09          -7.95346      -16.2254
2.72e+09          -7.92952      -19.5843
2.73e+09          -7.87844      -22.9444
2.74e+09          -7.83931      -26.0551
2.75e+09          -7.8144       -29.1169
2.76e+09          -7.81211      -32.1991
2.77e+09          -7.81588      -35.294
2.78e+09          -7.81931      -38.2607
2.79e+09          -7.85031      -41.1174
2.8e+09           -7.90557      -44.0229
2.81e+09          -7.96121      -47.0194
2.82e+09          -8.01229      -49.8794
2.83e+09          -8.06544      -52.6733
2.84e+09          -8.17021      -55.5397
2.85e+09          -8.25709      -58.4281
2.86e+09          -8.31588      -61.3432
2.87e+09          -8.3804       -63.9163
2.88e+09          -8.49668      -66.2772
2.89e+09          -8.64417      -68.7581
2.9e+09           -8.79263      -71.3186
2.91e+09          -8.92393      -73.7096
2.92e+09          -9.0778       -75.8078
2.93e+09          -9.28757      -77.8343
2.94e+09          -9.50962      -80.1387
2.95e+09          -9.6993       -82.6079
2.96e+09          -9.85916      -84.6342
2.97e+09          -10.0497      -86.3275
2.98e+09          -10.2786      -87.9765
2.99e+09          -10.5309      -89.7242
3e+09             -10.7474      -91.4098
3.01e+09          -10.9621      -92.5617
3.02e+09          -11.2097      -93.3899
3.03e+09          -11.5038      -94.0516
3.04e+09          -11.7951      -94.8228
3.05e+09          -12.0576      -95.3754
3.06e+09          -12.3055      -95.6256
3.07e+09          -12.5289      -95.5597
3.08e+09          -12.7297      -95.3204
3.09e+09          -12.8876      -94.8538
3.1e+09           -12.9925      -94.139
3.11e+09          -13.0568      -93.0427
3.12e+09          -13.0564      -91.9953
3.13e+09          -12.9981      -90.8296
3.14e+09          -12.9294      -89.6926
3.15e+09          -12.8109      -88.6345
3.16e+09          -12.6758      -87.9861
3.17e+09          -12.4528      -87.7718
3.18e+09          -12.1743      -87.6733
3.19e+09          -11.898       -87.6271
3.2e+09           -11.6336      -87.7207
3.21e+09          -11.3559      -88.4494
3.22e+09          -11.0366      -89.6033
3.23e+09          -10.6768      -90.5286
3.24e+09          -10.3559      -91.241
3.25e+09          -10.1276      -92.2644
3.26e+09          -9.89563      -93.9967
3.27e+09          -9.61456      -95.9129
3.28e+09          -9.30269      -97.6553
3.29e+09          -9.06887      -99.147
3.3e+09           -8.88399      -101.039
3.31e+09          -8.70052      -103.263
3.32e+09          -8.46952      -105.697
3.33e+09          -8.22239      -107.886
3.34e+09          -8.03337      -109.812
3.35e+09          -7.89696      -112.004
3.36e+09          -7.76703      -114.475
3.37e+09          -7.61528      -117.067
3.38e+09          -7.45654      -119.41
3.39e+09          -7.3423       -121.689
3.4e+09           -7.24326      -124.239
3.41e+09          -7.13293      -126.876
3.42e+09          -7.04506      -129.531
3.43e+09          -6.93972      -132.039
3.44e+09          -6.86241      -134.616
3.45e+09          -6.80544      -137.266
3.46e+09          -6.74497      -139.848
3.47e+09          -6.70411      -142.451
3.48e+09          -6.69034      -145.118
3.49e+09          -6.6638       -147.891
3.5e+09           -6.65123      -150.64
3.51e+09          -6.64327      -153.312
3.52e+09          -6.65278      -155.921
3.53e+09          -6.66512      -158.639
3.54e+09          -6.66909      -161.415
3.55e+09          -6.69404      -164.029
3.56e+09          -6.73224      -166.64
3.57e+09          -6.78927      -169.361
3.58e+09          -6.84276      -172.233
3.59e+09          -6.90758      -174.98
3.6e+09           -6.9922       -177.635
3.61e+09          -7.1059       179.426
3.62e+09          -7.20632      176.44
3.63e+09          -7.27427      173.454
3.64e+09          -7.37083      170.804
3.65e+09          -7.53704      168.069
3.66e+09          -7.72444      165.03
3.67e+09          -7.89436      161.719
3.68e+09          -8.04289      158.778
3.69e+09          -8.24714      156.189
3.7e+09           -8.5357       153.411
3.71e+09          -8.8321       150.011
3.72e+09          -9.07657      146.521
3.73e+09          -9.30018      143.618
3.74e+09          -9.60624      141.03
3.75e+09          -10.0193      138.245
3.76e+09          -10.4318      134.939
3.77e+09          -10.8025      131.637
3.78e+09          -11.2153      128.852
3.79e+09          -11.7586      126.163
3.8e+09           -12.3991      123.007
3.81e+09          -13.0362      119.606
3.82e+09          -13.6914      116.308
3.83e+09          -14.4215      113.356
3.84e+09          -15.252       110.589
3.85e+09          -16.2474      107.904
3.86e+09          -17.3615      105.348
3.87e+09          -18.6388      102.812
3.88e+09          -20.2358      100.986
3.89e+09          -22.199       99.4106
3.9e+09           -24.613       99.685
3.91e+09          -28.2416      103.702
3.92e+09          -34.2282      121.369
3.93e+09          -38.4747      -166.609
3.94e+09          -31.9105      -127.441
3.95e+09          -27.293       -123.211
3.96e+09          -24.012       -123.598
3.97e+09          -21.6166      -124.373
3.98e+09          -19.8035      -125.433
3.99e+09          -18.4291      -127.9
4e+09             -17.0872      -131.355
4.01e+09          -15.9163      -133.759
4.02e+09          -14.9155      -135.773
4.03e+09          -14.1548      -137.897
4.04e+09          -13.5156      -140.925
4.05e+09          -12.8726      -144.157
4.06e+09          -12.2488      -146.776
4.07e+09          -11.7503      -149.411
4.08e+09          -11.307       -152.409
4.09e+09          -10.8534      -155.817
4.1e+09           -10.3734      -158.862
4.11e+09          -9.94224      -161.126
4.12e+09          -9.65003      -163.467
4.13e+09          -9.37957      -166.261
4.14e+09          -9.06887      -169.203
4.15e+09          -8.76029      -171.687
4.16e+09          -8.53716      -173.944
4.17e+09          -8.37282      -176.506
4.18e+09          -8.20966      -179.481
4.19e+09          -7.97427      177.693
4.2e+09           -7.7392       175.211
4.21e+09          -7.5715       173.039
4.22e+09          -7.44786      170.588
4.23e+09          -7.30978      168.026
4.24e+09          -7.15931      165.722
4.25e+09          -7.01922      163.636
4.26e+09          -6.9235       161.515
4.27e+09          -6.85278      159.197
4.28e+09          -6.74828      156.887
4.29e+09          -6.66634      154.747
4.3e+09           -6.60287      152.462
4.31e+09          -6.52271      150.106
4.32e+09          -6.43893      147.907
4.33e+09          -6.36587      145.901
4.34e+09          -6.33067      143.904
4.35e+09          -6.30567      141.587
4.36e+09          -6.25443      139.44
4.37e+09          -6.20046      137.528
4.38e+09          -6.18364      135.801
4.39e+09          -6.21481      133.828
4.4e+09           -6.22177      131.642
4.41e+09          -6.19611      129.61
4.42e+09          -6.1731       127.805
4.43e+09          -6.20286      126.172
4.44e+09          -6.23692      124.312
4.45e+09          -6.26733      122.229
4.46e+09          -6.23657      120.574
4.47e+09          -6.2545       119.22
4.48e+09          -6.3308       117.758
4.49e+09          -6.3907       115.944
4.5e+09           -6.39423      114.12
4.51e+09          -6.37805      112.677
4.52e+09          -6.40978      111.451
4.53e+09          -6.502        110.106
4.54e+09          -6.55545      108.489
4.55e+09          -6.5691       106.984
4.56e+09          -6.56508      105.803
4.57e+09          -6.62268      104.749
4.58e+09          -6.6947       103.567
4.59e+09          -6.74433      102.246
4.6e+09           -6.77307      100.974
4.61e+09          -6.79548      99.8451
4.62e+09          -6.82242      98.7105
4.63e+09          -6.82517      97.6623
4.64e+09          -6.82139      96.6979
4.65e+09          -6.8462       95.91
4.66e+09          -6.88553      95.1
4.67e+09          -6.89762      94.1083
4.68e+09          -6.87932      93.0941
4.69e+09          -6.87463      92.4398
4.7e+09           -6.90226      91.6495
4.71e+09          -6.92585      90.5153
4.72e+09          -6.90275      89.2282
4.73e+09          -6.81683      88.1665
4.74e+09          -6.74944      87.4989
4.75e+09          -6.73612      86.7715
4.76e+09          -6.71499      85.797
4.77e+09          -6.64431      84.6367
4.78e+09          -6.55981      83.801
4.79e+09          -6.51276      83.1429
4.8e+09           -6.52343      82.2772
4.81e+09          -6.51485      81.1224
4.82e+09          -6.46207      79.7405
4.83e+09          -6.39801      78.5161
4.84e+09          -6.34245      77.4314
4.85e+09          -6.2849       76.0104
4.86e+09          -6.18564      74.7342
4.87e+09          -6.08654      73.7223
4.88e+09          -6.01411      72.7879
4.89e+09          -5.99025      71.5873
4.9e+09           -5.94215      70.1611
4.91e+09          -5.87966      68.8838
4.92e+09          -5.8298       67.8663
4.93e+09          -5.84877      66.6347
4.94e+09          -5.85724      64.974
4.95e+09          -5.78987      63.0525
4.96e+09          -5.67487      61.5077
4.97e+09          -5.58122      60.4548
4.98e+09          -5.55523      59.3142
4.99e+09          -5.5522       57.9062
5e+09             -5.49247      56.204
5.01e+09          -5.45092      54.9517
5.02e+09          -5.44903      53.752
