! ADC = 0
! IdxASIC = 10
! RefDesDBF = 220
# Hz S DB R 50
! freq             S11(dB)       S11(deg)
1e+08             -1.59005      -94.9559
1.1e+08           -1.89813      -103.328
1.2e+08           -2.25099      -110.992
1.3e+08           -2.63293      -118.49
1.4e+08           -2.90295      -126.37
1.5e+08           -3.02649      -134.64
1.6e+08           -3.07324      -142.42
1.7e+08           -3.07645      -149.356
1.8e+08           -3.20437      -156.146
1.9e+08           -3.3843       -162.819
2e+08             -3.59161      -169.522
2.1e+08           -3.8202       -176.004
2.2e+08           -4.03427      177.908
2.3e+08           -4.2646       171.618
2.4e+08           -4.4486       165.174
2.5e+08           -4.58734      158.795
2.6e+08           -4.66217      152.52
2.7e+08           -4.72956      146.436
2.8e+08           -4.85755      140.59
2.9e+08           -5.02108      134.858
3e+08             -5.20046      129.165
3.1e+08           -5.42827      123.439
3.2e+08           -5.64045      117.726
3.3e+08           -5.84372      111.937
3.4e+08           -6.01097      106.038
3.5e+08           -6.13888      100.131
3.6e+08           -6.23714      94.3022
3.7e+08           -6.34249      88.6424
3.8e+08           -6.48826      83.1599
3.9e+08           -6.66605      77.7023
4e+08             -6.88355      72.1885
4.1e+08           -7.11493      66.7125
4.2e+08           -7.32328      61.2906
4.3e+08           -7.5388       55.5377
4.4e+08           -7.7595       49.9424
4.5e+08           -7.94489      44.2202
4.6e+08           -8.10497      38.5423
4.7e+08           -8.26764      32.7364
4.8e+08           -8.44386      27.2792
4.9e+08           -8.65334      22.0515
5e+08             -8.89157      16.8069
5.1e+08           -9.18688      11.5252
5.2e+08           -9.44464      6.10821
5.3e+08           -9.67362      0.546618
5.4e+08           -9.92344      -4.9184
5.5e+08           -10.1772      -10.4828
5.6e+08           -10.4226      -16.0564
5.7e+08           -10.6534      -21.63
5.8e+08           -10.866       -27.0044
5.9e+08           -11.088       -32.0036
6e+08             -11.3653      -36.771
6.1e+08           -11.7002      -41.4774
6.2e+08           -12.0653      -46.5208
6.3e+08           -12.3755      -51.755
6.4e+08           -12.6439      -56.8528
6.5e+08           -12.9382      -61.446
6.6e+08           -13.2531      -65.9148
6.7e+08           -13.5831      -70.6695
6.8e+08           -13.8895      -75.2198
6.9e+08           -14.149       -79.2546
7e+08             -14.4295      -82.692
7.1e+08           -14.8423      -85.7708
7.2e+08           -15.3808      -89.0495
7.3e+08           -15.7715      -92.9885
7.4e+08           -16.0442      -96.6767
7.5e+08           -16.3021      -99.3027
7.6e+08           -16.625       -101.094
7.7e+08           -17.0521      -102.958
7.8e+08           -17.4442      -105.498
7.9e+08           -17.6135      -107.788
8e+08             -17.6665      -108.669
8.1e+08           -17.7886      -108.216
8.2e+08           -18.006       -107.744
8.3e+08           -18.2074      -108.123
8.4e+08           -18.1953      -109.115
8.5e+08           -17.8896      -109.812
8.6e+08           -17.5121      -108.963
8.7e+08           -17.3104      -107.679
8.8e+08           -17.1956      -107.246
8.9e+08           -17.0526      -108.372
9e+08             -16.7607      -110.13
9.1e+08           -16.331       -111.575
9.2e+08           -15.8632      -112.84
9.3e+08           -15.4884      -113.786
9.4e+08           -15.2293      -115.397
9.5e+08           -14.9367      -117.842
9.6e+08           -14.5932      -120.834
9.7e+08           -14.1083      -123.833
9.8e+08           -13.6419      -126.354
9.9e+08           -13.2482      -128.671
1e+09             -12.923       -131.374
1.01e+09          -12.6104      -134.494
1.02e+09          -12.2554      -137.681
1.03e+09          -11.8897      -140.836
1.04e+09          -11.5619      -143.653
1.05e+09          -11.3096      -146.703
1.06e+09          -11.0853      -150.042
1.07e+09          -10.828       -153.555
1.08e+09          -10.5463      -157.011
1.09e+09          -10.2723      -160.369
1.1e+09           -10.0124      -163.459
1.11e+09          -9.82303      -166.565
1.12e+09          -9.64879      -169.862
1.13e+09          -9.48801      -173.419
1.14e+09          -9.27603      -176.966
1.15e+09          -9.09054      179.759
1.16e+09          -8.9588       176.615
1.17e+09          -8.84214      173.179
1.18e+09          -8.7256       169.485
1.19e+09          -8.56118      165.879
1.2e+09           -8.38416      162.665
1.21e+09          -8.26327      159.678
1.22e+09          -8.19043      156.505
1.23e+09          -8.12102      153.046
1.24e+09          -8.00725      149.59
1.25e+09          -7.89847      146.498
1.26e+09          -7.84112      143.567
1.27e+09          -7.8209       140.442
1.28e+09          -7.7941       137.054
1.29e+09          -7.73802      133.578
1.3e+09           -7.65699      130.445
1.31e+09          -7.60947      127.631
1.32e+09          -7.60924      124.653
1.33e+09          -7.62616      121.503
1.34e+09          -7.62968      118.248
1.35e+09          -7.60134      115.062
1.36e+09          -7.59392      112.06
1.37e+09          -7.60466      109.205
1.38e+09          -7.65792      106.248
1.39e+09          -7.70122      103.122
1.4e+09           -7.72296      99.9655
1.41e+09          -7.73323      97.0833
1.42e+09          -7.77443      94.406
1.43e+09          -7.85211      91.7009
1.44e+09          -7.84745      88.648
1.45e+09          -8.01349      85.8455
1.46e+09          -8.05847      83.0079
1.47e+09          -8.15341      80.5385
1.48e+09          -8.28592      77.9982
1.49e+09          -8.42043      75.2106
1.5e+09           -8.53622      72.3342
1.51e+09          -8.62245      69.6846
1.52e+09          -8.73277      67.3717
1.53e+09          -8.88909      65.0158
1.54e+09          -9.04584      62.5262
1.55e+09          -9.18138      60.1958
1.56e+09          -9.31964      57.9414
1.57e+09          -9.48942      55.7952
1.58e+09          -9.66936      53.5996
1.59e+09          -9.83375      51.4524
1.6e+09           -10.0018      49.4568
1.61e+09          -10.1902      47.5501
1.62e+09          -10.3866      45.6928
1.63e+09          -10.575       43.886
1.64e+09          -10.7377      42.3049
1.65e+09          -10.9304      40.978
1.66e+09          -11.1812      39.6715
1.67e+09          -11.4195      37.9476
1.68e+09          -11.5865      36.3072
1.69e+09          -11.6833      35.0531
1.7e+09           -11.8138      34.3118
1.71e+09          -11.9915      33.566
1.72e+09          -12.154       32.5889
1.73e+09          -12.2645      31.6283
1.74e+09          -12.3266      31.0017
1.75e+09          -12.404       30.5114
1.76e+09          -12.4921      29.9822
1.77e+09          -12.5544      29.3835
1.78e+09          -12.5904      28.6824
1.79e+09          -12.6294      27.9738
1.8e+09           -12.6185      27.2016
1.81e+09          -12.6054      26.2228
1.82e+09          -12.5498      25.1883
1.83e+09          -12.4917      24.3441
1.84e+09          -12.434       23.3052
1.85e+09          -12.3775      21.9501
1.86e+09          -12.2758      20.5213
1.87e+09          -12.1824      19.2123
1.88e+09          -12.122       17.9588
1.89e+09          -12.1008      16.3361
1.9e+09           -12.0559      14.3045
1.91e+09          -11.9446      12.0492
1.92e+09          -11.8448      10.0943
1.93e+09          -11.7894      8.18923
1.94e+09          -11.7297      5.9119
1.95e+09          -11.6621      3.48968
1.96e+09          -11.5925      1.12755
1.97e+09          -11.5734      -0.992621
1.98e+09          -11.6012      -3.33978
1.99e+09          -11.6366      -6.14646
2e+09             -11.6325      -9.14241
2.01e+09          -11.6447      -12.0248
2.02e+09          -11.6955      -14.9268
2.03e+09          -11.72        -18.2614
2.04e+09          -11.7321      -21.4814
2.05e+09          -11.7539      -24.3813
2.06e+09          -11.8546      -27.1946
2.07e+09          -12.0182      -30.4249
2.08e+09          -12.1457      -34.0985
2.09e+09          -12.253       -37.6323
2.1e+09           -12.4083      -40.9041
2.11e+09          -12.6679      -44.3369
2.12e+09          -12.9411      -48.5691
2.13e+09          -13.1484      -53.1813
2.14e+09          -13.3151      -57.4537
2.15e+09          -13.5514      -61.5689
2.16e+09          -13.8662      -65.8626
2.17e+09          -14.1606      -70.6224
2.18e+09          -14.4697      -75.5148
2.19e+09          -14.8103      -80.4242
2.2e+09           -15.2247      -85.7341
2.21e+09          -15.6325      -91.391
2.22e+09          -16.056       -97.4882
2.23e+09          -16.5296      -103.897
2.24e+09          -17.0408      -111.25
2.25e+09          -17.4558      -119.059
2.26e+09          -17.7698      -127.268
2.27e+09          -18.1716      -135.283
2.28e+09          -18.6076      -144.285
2.29e+09          -18.9166      -155.041
2.3e+09           -18.9982      -165.765
2.31e+09          -18.9232      -175.784
2.32e+09          -18.8712      173.921
2.33e+09          -18.6501      162.89
2.34e+09          -18.1927      152.465
2.35e+09          -17.6295      143.603
2.36e+09          -17.1572      135.542
2.37e+09          -16.7026      127.397
2.38e+09          -16.184       119.371
2.39e+09          -15.5954      112.066
2.4e+09           -14.9986      105.393
2.41e+09          -14.4584      99.3495
2.42e+09          -13.933       93.5675
2.43e+09          -13.4634      88.2873
2.44e+09          -13.0296      83.0724
2.45e+09          -12.5901      77.553
2.46e+09          -12.0995      72.53
2.47e+09          -11.6324      68.3641
2.48e+09          -11.2824      64.4118
2.49e+09          -11.0326      60.0449
2.5e+09           -10.7258      55.2413
2.51e+09          -10.3301      50.766
2.52e+09          -9.96828      47.133
2.53e+09          -9.74395      43.7608
2.54e+09          -9.57745      39.8543
2.55e+09          -9.3409       35.423
2.56e+09          -9.03878      31.4714
2.57e+09          -8.76148      28.1927
2.58e+09          -8.58972      25.0774
2.59e+09          -8.46699      21.596
2.6e+09           -8.3043       17.7558
2.61e+09          -8.08737      14.1753
2.62e+09          -7.91482      11.1818
2.63e+09          -7.8117       8.17878
2.64e+09          -7.73436      4.97998
2.65e+09          -7.64052      1.53205
2.66e+09          -7.50709      -1.85839
2.67e+09          -7.36903      -4.97334
2.68e+09          -7.269        -7.86356
2.69e+09          -7.20706      -10.6847
2.7e+09           -7.17589      -13.6529
2.71e+09          -7.14163      -16.8745
2.72e+09          -7.07444      -20.0302
2.73e+09          -6.99072      -22.886
2.74e+09          -6.96253      -25.3875
2.75e+09          -6.98448      -28.0875
2.76e+09          -7.00693      -31.14
2.77e+09          -6.97645      -34.2709
2.78e+09          -6.92285      -36.9707
2.79e+09          -6.90871      -39.2888
2.8e+09           -6.96279      -41.6316
2.81e+09          -7.04114      -44.3567
2.82e+09          -7.09092      -47.2442
2.83e+09          -7.09982      -49.9365
2.84e+09          -7.15303      -52.4529
2.85e+09          -7.22609      -54.8464
2.86e+09          -7.30097      -57.4275
2.87e+09          -7.37217      -59.9271
2.88e+09          -7.44802      -62.3094
2.89e+09          -7.51412      -64.6298
2.9e+09           -7.59155      -66.7659
2.91e+09          -7.68925      -68.7013
2.92e+09          -7.82096      -70.5555
2.93e+09          -7.99746      -72.4828
2.94e+09          -8.15968      -74.7658
2.95e+09          -8.28383      -76.9973
2.96e+09          -8.39255      -78.7357
2.97e+09          -8.57289      -80.1837
2.98e+09          -8.78508      -81.8779
2.99e+09          -8.97925      -83.9445
3e+09             -9.07483      -85.9129
3.01e+09          -9.14235      -87.0897
3.02e+09          -9.28928      -87.6897
3.03e+09          -9.53663      -88.3117
3.04e+09          -9.80508      -89.5357
3.05e+09          -9.98795      -90.8193
3.06e+09          -10.1102      -91.5866
3.07e+09          -10.2414      -91.6123
3.08e+09          -10.4282      -91.5733
3.09e+09          -10.6223      -91.8813
3.1e+09           -10.7249      -92.478
3.11e+09          -10.72        -92.8009
3.12e+09          -10.6278      -92.5713
3.13e+09          -10.5501      -91.7958
3.14e+09          -10.5495      -91.0047
3.15e+09          -10.5628      -90.6137
3.16e+09          -10.5347      -90.8914
3.17e+09          -10.381       -91.3833
3.18e+09          -10.1699      -91.5958
3.19e+09          -9.99577      -91.5379
3.2e+09           -9.89312      -91.6418
3.21e+09          -9.79334      -92.674
3.22e+09          -9.59367      -94.4254
3.23e+09          -9.27343      -95.7442
3.24e+09          -8.95868      -96.3482
3.25e+09          -8.76438      -96.8199
3.26e+09          -8.6216       -97.9218
3.27e+09          -8.45243      -99.5695
3.28e+09          -8.21224      -101.26
3.29e+09          -8.01148      -102.563
3.3e+09           -7.86795      -103.977
3.31e+09          -7.77498      -105.788
3.32e+09          -7.64723      -108.132
3.33e+09          -7.46237      -110.509
3.34e+09          -7.26417      -112.572
3.35e+09          -7.10131      -114.569
3.36e+09          -6.95599      -116.615
3.37e+09          -6.81583      -118.699
3.38e+09          -6.68862      -120.69
3.39e+09          -6.5994       -122.708
3.4e+09           -6.52005      -124.964
3.41e+09          -6.42928      -127.224
3.42e+09          -6.38195      -129.499
3.43e+09          -6.33386      -131.815
3.44e+09          -6.30132      -134.471
3.45e+09          -6.24265      -137.316
3.46e+09          -6.12679      -139.88
3.47e+09          -6.03195      -142.043
3.48e+09          -6.00911      -144.068
3.49e+09          -6.0171       -146.383
3.5e+09           -6.03477      -148.978
3.51e+09          -6.0124       -151.494
3.52e+09          -6.0019       -153.731
3.53e+09          -6.0344       -155.968
3.54e+09          -6.09047      -158.496
3.55e+09          -6.15413      -161.279
3.56e+09          -6.17697      -164.176
3.57e+09          -6.17504      -166.986
3.58e+09          -6.16312      -169.596
3.59e+09          -6.18352      -171.835
3.6e+09           -6.26394      -174.017
3.61e+09          -6.38373      -176.651
3.62e+09          -6.4833       -179.416
3.63e+09          -6.53019      177.803
3.64e+09          -6.60931      175.578
3.65e+09          -6.79353      173.28
3.66e+09          -7.02349      170.38
3.67e+09          -7.19855      166.797
3.68e+09          -7.26263      163.594
3.69e+09          -7.33493      161.296
3.7e+09           -7.53487      159.281
3.71e+09          -7.8242       156.64
3.72e+09          -8.08166      153.436
3.73e+09          -8.2601       150.601
3.74e+09          -8.48345      148.389
3.75e+09          -8.84373      146.304
3.76e+09          -9.2733       143.585
3.77e+09          -9.65525      140.238
3.78e+09          -9.97925      137.203
3.79e+09          -10.3552      134.633
3.8e+09           -10.8067      132.217
3.81e+09          -11.2994      129.817
3.82e+09          -11.8434      127.486
3.83e+09          -12.4649      125.249
3.84e+09          -13.1156      123
3.85e+09          -13.8454      121.107
3.86e+09          -14.6021      119.798
3.87e+09          -15.5225      118.939
3.88e+09          -16.7068      118.582
3.89e+09          -18.0204      117.56
3.9e+09           -19.2368      117.045
3.91e+09          -20.5159      119.439
3.92e+09          -21.9933      126.393
3.93e+09          -23.7938      137.365
3.94e+09          -25.4233      152.806
3.95e+09          -25.8167      170.548
3.96e+09          -24.7367      -173.304
3.97e+09          -23.0173      -161.668
3.98e+09          -21.2846      -153.51
3.99e+09          -19.8233      -149.407
4e+09             -18.4006      -147.951
4.01e+09          -17.221       -147.299
4.02e+09          -16.1732      -147.556
4.03e+09          -15.2971      -148.73
4.04e+09          -14.4634      -150.862
4.05e+09          -13.6433      -152.884
4.06e+09          -12.9052      -154.025
4.07e+09          -12.3692      -155.539
4.08e+09          -11.8978      -157.982
4.09e+09          -11.3728      -161.071
4.1e+09           -10.8025      -163.524
4.11e+09          -10.3384      -165.044
4.12e+09          -10.0746      -166.963
4.13e+09          -9.81676      -169.867
4.14e+09          -9.43485      -173.09
4.15e+09          -9.01702      -175.416
4.16e+09          -8.72617      -177.041
4.17e+09          -8.56255      -179.06
4.18e+09          -8.41555      178.159
4.19e+09          -8.1574       175.33
4.2e+09           -7.88388      173.043
4.21e+09          -7.70093      171.195
4.22e+09          -7.59477      168.97
4.23e+09          -7.47574      166.408
4.24e+09          -7.3268       164.007
4.25e+09          -7.1749       161.798
4.26e+09          -7.04976      159.682
4.27e+09          -6.93859      157.458
4.28e+09          -6.81132      155.447
4.29e+09          -6.7272       153.628
4.3e+09           -6.68529      151.524
4.31e+09          -6.61009      149.178
4.32e+09          -6.50997      146.993
4.33e+09          -6.42318      145.132
4.34e+09          -6.40201      143.276
4.35e+09          -6.41086      140.825
4.36e+09          -6.35381      138.352
4.37e+09          -6.25222      136.293
4.38e+09          -6.19405      134.774
4.39e+09          -6.23036      133.14
4.4e+09           -6.27034      131.076
4.41e+09          -6.25842      128.994
4.42e+09          -6.22502      127.201
4.43e+09          -6.24604      125.764
4.44e+09          -6.30214      124.063
4.45e+09          -6.36043      121.927
4.46e+09          -6.33206      120.121
4.47e+09          -6.33087      118.687
4.48e+09          -6.38665      117.318
4.49e+09          -6.44672      115.692
4.5e+09           -6.46387      114.07
4.51e+09          -6.47044      112.754
4.52e+09          -6.52693      111.581
4.53e+09          -6.63315      110.237
4.54e+09          -6.67968      108.626
4.55e+09          -6.68307      107.273
4.56e+09          -6.68872      106.274
4.57e+09          -6.76212      105.213
4.58e+09          -6.82777      103.904
4.59e+09          -6.82594      102.595
4.6e+09           -6.81451      101.683
4.61e+09          -6.84569      101.078
4.62e+09          -6.92697      100.18
4.63e+09          -6.96125      99.0211
4.64e+09          -6.93525      97.9312
4.65e+09          -6.92622      97.2968
4.66e+09          -6.95938      96.7663
4.67e+09          -6.98035      95.835
4.68e+09          -6.94104      94.7224
4.69e+09          -6.87675      94.0751
4.7e+09           -6.85234      93.4951
4.71e+09          -6.85098      92.728
4.72e+09          -6.82895      91.6542
4.73e+09          -6.74015      90.6122
4.74e+09          -6.65958      89.9854
4.75e+09          -6.63697      89.3471
4.76e+09          -6.62267      88.3994
4.77e+09          -6.55276      87.1299
4.78e+09          -6.44801      86.0558
4.79e+09          -6.34786      85.1931
4.8e+09           -6.29655      84.2326
4.81e+09          -6.21784      83.144
4.82e+09          -6.11374      81.9928
4.83e+09          -6.02793      81.054
4.84e+09          -5.98775      80.1466
4.85e+09          -5.96085      78.6995
4.86e+09          -5.87416      77.1802
4.87e+09          -5.77319      75.9344
4.88e+09          -5.68843      74.8404
4.89e+09          -5.65943      73.4797
4.9e+09           -5.595        71.7939
4.91e+09          -5.4873       70.2493
4.92e+09          -5.37795      69.1269
4.93e+09          -5.34371      67.9641
4.94e+09          -5.31639      66.4922
4.95e+09          -5.2468       64.7996
4.96e+09          -5.15756      63.3729
4.97e+09          -5.10374      62.2616
4.98e+09          -5.1127       60.8861
4.99e+09          -5.12038      59.1138
5e+09             -5.04406      57.1037
5.01e+09          -4.98148      55.6408
5.02e+09          -4.94883      54.2622
