! ADC = 0
! IdxASIC = 13
! RefDesDBF = 225
# Hz S DB R 50
! freq             S11(dB)       S11(deg)
1e+08             -1.48052      -91.7317
1.1e+08           -1.74906      -99.5554
1.2e+08           -2.05757      -106.643
1.3e+08           -2.40716      -113.446
1.4e+08           -2.67378      -120.556
1.5e+08           -2.8032       -128.065
1.6e+08           -2.84814      -135.143
1.7e+08           -2.85978      -141.412
1.8e+08           -2.95792      -147.431
1.9e+08           -3.13644      -153.407
2e+08             -3.31865      -159.39
2.1e+08           -3.52434      -165.193
2.2e+08           -3.71534      -170.493
2.3e+08           -3.95052      -175.935
2.4e+08           -4.15804      178.513
2.5e+08           -4.34072      173.058
2.6e+08           -4.47106      167.536
2.7e+08           -4.5839       162.169
2.8e+08           -4.74034      157.007
2.9e+08           -4.94054      152.018
3e+08             -5.16359      147.011
3.1e+08           -5.44868      142.02
3.2e+08           -5.73738      137.08
3.3e+08           -6.02988      132.202
3.4e+08           -6.33372      127.208
3.5e+08           -6.62094      122.154
3.6e+08           -6.88906      116.991
3.7e+08           -7.17311      111.987
3.8e+08           -7.49312      107.155
3.9e+08           -7.86956      102.383
4e+08             -8.3188       97.5773
4.1e+08           -8.81923      92.9228
4.2e+08           -9.30064      88.2277
4.3e+08           -9.8693       83.5555
4.4e+08           -10.4853      79.0804
4.5e+08           -11.1387      74.5279
4.6e+08           -11.8165      69.8629
4.7e+08           -12.5848      65.076
4.8e+08           -13.3855      60.6544
4.9e+08           -14.2976      56.7687
5e+08             -15.309       53.278
5.1e+08           -16.5768      50.4599
5.2e+08           -17.9704      47.8419
5.3e+08           -19.512       45.6
5.4e+08           -21.3726      45.2983
5.5e+08           -23.6273      47.7523
5.6e+08           -26.3501      55.275
5.7e+08           -29.1282      72.062
5.8e+08           -30.2779      99.2681
5.9e+08           -28.7062      122.001
6e+08             -26.1164      133.575
6.1e+08           -23.7526      137.701
6.2e+08           -21.8033      139.275
6.3e+08           -20.3405      138.984
6.4e+08           -19.185       137.301
6.5e+08           -18.1763      134.146
6.6e+08           -17.3146      130.786
6.7e+08           -16.5321      127.76
6.8e+08           -15.8852      124.475
6.9e+08           -15.4137      120.876
7e+08             -15.0011      116.821
7.1e+08           -14.5657      112.236
7.2e+08           -14.1071      107.649
7.3e+08           -13.695       104.218
7.4e+08           -13.4637      100.643
7.5e+08           -13.2813      96.4843
7.6e+08           -13.0944      91.8666
7.7e+08           -12.8472      87.4434
7.8e+08           -12.6339      83.6157
7.9e+08           -12.5562      79.9908
8e+08             -12.5408      75.7617
8.1e+08           -12.4945      70.9116
8.2e+08           -12.3812      66.3037
8.3e+08           -12.2741      62.1463
8.4e+08           -12.276       58.231
8.5e+08           -12.3772      53.9862
8.6e+08           -12.468       48.9514
8.7e+08           -12.4449      43.7994
8.8e+08           -12.3969      39.2586
8.9e+08           -12.4156      35.2831
9e+08             -12.5172      31.2067
9.1e+08           -12.6677      26.5366
9.2e+08           -12.8369      21.4242
9.3e+08           -12.8961      16.2161
9.4e+08           -12.9311      11.5787
9.5e+08           -13.0355      7.22808
9.6e+08           -13.2225      2.90986
9.7e+08           -13.4777      -2.33039
9.8e+08           -13.6711      -7.85228
9.9e+08           -13.7841      -13.3056
1e+09             -13.9273      -18.2948
1.01e+09          -14.13        -23.1738
1.02e+09          -14.3663      -28.5934
1.03e+09          -14.5916      -34.3543
1.04e+09          -14.7402      -40.1477
1.05e+09          -14.8905      -45.4223
1.06e+09          -15.085       -50.5651
1.07e+09          -15.3272      -55.977
1.08e+09          -15.608       -61.7656
1.09e+09          -15.8083      -68.0327
1.1e+09           -15.9519      -74.3671
1.11e+09          -16.0789      -80.0131
1.12e+09          -16.2303      -85.5128
1.13e+09          -16.4744      -91.1084
1.14e+09          -16.6912      -97.5685
1.15e+09          -16.7848      -103.781
1.16e+09          -16.8514      -109.137
1.17e+09          -17.0028      -114.318
1.18e+09          -17.2715      -119.703
1.19e+09          -17.4836      -126.059
1.2e+09           -17.5209      -132.269
1.21e+09          -17.5267      -137.411
1.22e+09          -17.6523      -141.976
1.23e+09          -17.8731      -146.794
1.24e+09          -18.0604      -152.453
1.25e+09          -18.089       -157.579
1.26e+09          -18.135       -161.568
1.27e+09          -18.3177      -165.128
1.28e+09          -18.5772      -169.111
1.29e+09          -18.857       -173.608
1.3e+09           -18.9517      -177.99
1.31e+09          -18.983       178.844
1.32e+09          -19.1638      176.385
1.33e+09          -19.4423      174.166
1.34e+09          -19.7339      171.836
1.35e+09          -19.9561      169.12
1.36e+09          -20.1142      167.245
1.37e+09          -20.2129      166.522
1.38e+09          -20.405       166.625
1.39e+09          -20.6703      166.861
1.4e+09           -20.879       166.686
1.41e+09          -20.8869      166.671
1.42e+09          -20.7444      167.847
1.43e+09          -20.5944      169.667
1.44e+09          -20.8247      172.598
1.45e+09          -20.2765      172.865
1.46e+09          -19.9315      173.282
1.47e+09          -19.3642      174.4
1.48e+09          -18.8122      175.616
1.49e+09          -18.3121      176.388
1.5e+09           -17.8224      176.412
1.51e+09          -17.2888      175.401
1.52e+09          -16.6578      174.049
1.53e+09          -16.0641      172.933
1.54e+09          -15.5293      171.553
1.55e+09          -14.9947      169.594
1.56e+09          -14.4714      167.655
1.57e+09          -13.9615      165.683
1.58e+09          -13.4975      163.625
1.59e+09          -13.0548      161.261
1.6e+09           -12.6117      158.704
1.61e+09          -12.1869      156.227
1.62e+09          -11.789       153.622
1.63e+09          -11.4157      150.915
1.64e+09          -11.0444      147.941
1.65e+09          -10.6606      145.067
1.66e+09          -10.2919      142.494
1.67e+09          -10.0057      140.039
1.68e+09          -9.74599      137.165
1.69e+09          -9.48386      133.979
1.7e+09           -9.18807      130.942
1.71e+09          -8.92087      128.136
1.72e+09          -8.69225      125.403
1.73e+09          -8.49259      122.499
1.74e+09          -8.28297      119.375
1.75e+09          -8.07438      116.414
1.76e+09          -7.87877      113.482
1.77e+09          -7.69337      110.623
1.78e+09          -7.52793      107.772
1.79e+09          -7.37959      105.005
1.8e+09           -7.23926      102.145
1.81e+09          -7.11611      99.2865
1.82e+09          -6.99694      96.4065
1.83e+09          -6.87744      93.6505
1.84e+09          -6.77119      90.8913
1.85e+09          -6.69126      88.1078
1.86e+09          -6.60151      85.2617
1.87e+09          -6.50065      82.4813
1.88e+09          -6.41159      79.9067
1.89e+09          -6.35066      77.4184
1.9e+09           -6.32014      74.8386
1.91e+09          -6.28257      72.0507
1.92e+09          -6.23769      69.3611
1.93e+09          -6.19653      66.8689
1.94e+09          -6.17737      64.3193
1.95e+09          -6.17008      61.743
1.96e+09          -6.1611       59.146
1.97e+09          -6.13039      56.7201
1.98e+09          -6.12381      54.3858
1.99e+09          -6.14655      52.0348
2e+09             -6.17354      49.6058
2.01e+09          -6.20007      47.2529
2.02e+09          -6.23849      44.9988
2.03e+09          -6.2893       42.596
2.04e+09          -6.33902      40.2476
2.05e+09          -6.3745       37.9853
2.06e+09          -6.42309      35.9901
2.07e+09          -6.50056      34.0656
2.08e+09          -6.5951       31.9967
2.09e+09          -6.67616      29.9053
2.1e+09           -6.73884      27.9793
2.11e+09          -6.82259      26.4124
2.12e+09          -6.95016      24.8372
2.13e+09          -7.08768      23.0843
2.14e+09          -7.19581      21.3003
2.15e+09          -7.30025      19.7064
2.16e+09          -7.40712      18.4743
2.17e+09          -7.53686      17.1824
2.18e+09          -7.66837      15.9692
2.19e+09          -7.7767       14.7931
2.2e+09           -7.87273      13.8808
2.21e+09          -7.95818      13.0653
2.22e+09          -8.05009      12.3721
2.23e+09          -8.12516      11.8297
2.24e+09          -8.19466      11.4801
2.25e+09          -8.2472       11.0947
2.26e+09          -8.30767      10.6659
2.27e+09          -8.29373      10.2916
2.28e+09          -8.25348      9.9995
2.29e+09          -8.20917      9.94771
2.3e+09           -8.16135      9.71764
2.31e+09          -8.09818      9.28847
2.32e+09          -7.97701      8.81317
2.33e+09          -7.8296       8.4485
2.34e+09          -7.68631      8.11485
2.35e+09          -7.56181      7.5853
2.36e+09          -7.41209      6.68087
2.37e+09          -7.23011      5.70353
2.38e+09          -7.02312      4.73246
2.39e+09          -6.84277      3.79053
2.4e+09           -6.6683       2.72734
2.41e+09          -6.50827      1.38502
2.42e+09          -6.33464      -0.08821
2.43e+09          -6.15576      -1.6732
2.44e+09          -5.97619      -3.34821
2.45e+09          -5.77898      -4.99783
2.46e+09          -5.60049      -6.50633
2.47e+09          -5.45966      -8.0605
2.48e+09          -5.33919      -9.77351
2.49e+09          -5.21604      -11.8548
2.5e+09           -5.05932      -13.8297
2.51e+09          -4.89704      -15.6236
2.52e+09          -4.7929       -17.3059
2.53e+09          -4.73298      -19.3082
2.54e+09          -4.6476       -21.6044
2.55e+09          -4.51399      -23.8791
2.56e+09          -4.38383      -25.8107
2.57e+09          -4.30123      -27.5859
2.58e+09          -4.25761      -29.6472
2.59e+09          -4.21182      -31.8936
2.6e+09           -4.11985      -34.1394
2.61e+09          -4.02451      -36.1222
2.62e+09          -3.98867      -37.9314
2.63e+09          -3.97905      -39.9925
2.64e+09          -3.9566       -42.2402
2.65e+09          -3.90629      -44.5322
2.66e+09          -3.84418      -46.6501
2.67e+09          -3.79676      -48.6192
2.68e+09          -3.77858      -50.6097
2.69e+09          -3.77312      -52.6704
2.7e+09           -3.77148      -54.81
2.71e+09          -3.76376      -57.0486
2.72e+09          -3.74181      -59.1258
2.73e+09          -3.72812      -61.0766
2.74e+09          -3.75668      -62.943
2.75e+09          -3.79332      -65.0432
2.76e+09          -3.81412      -67.3216
2.77e+09          -3.80638      -69.515
2.78e+09          -3.79614      -71.4487
2.79e+09          -3.82217      -73.2133
2.8e+09           -3.88766      -75.1622
2.81e+09          -3.94928      -77.3659
2.82e+09          -3.98219      -79.5449
2.83e+09          -3.9981       -81.5281
2.84e+09          -4.05998      -83.4591
2.85e+09          -4.13593      -85.3374
2.86e+09          -4.20535      -87.3982
2.87e+09          -4.26546      -89.4218
2.88e+09          -4.32528      -91.353
2.89e+09          -4.39671      -93.2246
2.9e+09           -4.47214      -95.0475
2.91e+09          -4.56676      -96.8031
2.92e+09          -4.67871      -98.5584
2.93e+09          -4.81628      -100.421
2.94e+09          -4.9282       -102.39
2.95e+09          -5.02699      -104.283
2.96e+09          -5.13056      -105.843
2.97e+09          -5.28204      -107.326
2.98e+09          -5.452        -109.016
2.99e+09          -5.59251      -110.885
3e+09             -5.68136      -112.506
3.01e+09          -5.78465      -113.617
3.02e+09          -5.95007      -114.555
3.03e+09          -6.17107      -115.699
3.04e+09          -6.36481      -117.274
3.05e+09          -6.50799      -118.699
3.06e+09          -6.64424      -119.673
3.07e+09          -6.82503      -120.284
3.08e+09          -7.05012      -121.03
3.09e+09          -7.25952      -121.89
3.1e+09           -7.40638      -122.672
3.11e+09          -7.50145      -122.948
3.12e+09          -7.57178      -122.773
3.13e+09          -7.66493      -122.34
3.14e+09          -7.78079      -122.096
3.15e+09          -7.88138      -122.022
3.16e+09          -7.92061      -122.266
3.17e+09          -7.86549      -122.399
3.18e+09          -7.78047      -122.24
3.19e+09          -7.72305      -121.957
3.2e+09           -7.70698      -121.94
3.21e+09          -7.64836      -122.541
3.22e+09          -7.49529      -123.414
3.23e+09          -7.27412      -123.876
3.24e+09          -7.09513      -123.905
3.25e+09          -6.99634      -124.181
3.26e+09          -6.90574      -125.089
3.27e+09          -6.76465      -126.365
3.28e+09          -6.5668       -127.514
3.29e+09          -6.42418      -128.472
3.3e+09           -6.31757      -129.637
3.31e+09          -6.23653      -131.201
3.32e+09          -6.10213      -133.042
3.33e+09          -5.93076      -134.77
3.34e+09          -5.78185      -136.239
3.35e+09          -5.66456      -137.782
3.36e+09          -5.55973      -139.395
3.37e+09          -5.45278      -141.097
3.38e+09          -5.368        -142.748
3.39e+09          -5.31158      -144.49
3.4e+09           -5.25326      -146.481
3.41e+09          -5.18292      -148.421
3.42e+09          -5.14944      -150.359
3.43e+09          -5.11939      -152.325
3.44e+09          -5.0958       -154.567
3.45e+09          -5.04146      -156.847
3.46e+09          -4.96072      -158.778
3.47e+09          -4.91789      -160.459
3.48e+09          -4.93709      -162.184
3.49e+09          -4.96135      -164.235
3.5e+09           -4.97707      -166.493
3.51e+09          -4.96966      -168.62
3.52e+09          -4.9826       -170.513
3.53e+09          -5.03073      -172.473
3.54e+09          -5.092        -174.663
3.55e+09          -5.15363      -176.942
3.56e+09          -5.18455      -179.262
3.57e+09          -5.21         178.57
3.58e+09          -5.23203      176.536
3.59e+09          -5.29092      174.788
3.6e+09           -5.389        173.013
3.61e+09          -5.52245      170.794
3.62e+09          -5.62784      168.518
3.63e+09          -5.68759      166.307
3.64e+09          -5.78584      164.578
3.65e+09          -5.96953      162.741
3.66e+09          -6.18959      160.459
3.67e+09          -6.35474      157.713
3.68e+09          -6.44393      155.438
3.69e+09          -6.55548      153.932
3.7e+09           -6.78242      152.591
3.71e+09          -7.06764      150.745
3.72e+09          -7.32128      148.491
3.73e+09          -7.51216      146.678
3.74e+09          -7.74067      145.414
3.75e+09          -8.06155      144.332
3.76e+09          -8.43047      142.834
3.77e+09          -8.75752      141.068
3.78e+09          -9.03441      139.648
3.79e+09          -9.33881      138.716
3.8e+09           -9.68902      138.078
3.81e+09          -10.0443      137.666
3.82e+09          -10.4224      137.412
3.83e+09          -10.8215      137.382
3.84e+09          -11.194       137.46
3.85e+09          -11.5475      138.01
3.86e+09          -11.8387      139.03
3.87e+09          -12.1441      140.49
3.88e+09          -12.5004      142.494
3.89e+09          -12.8301      144.049
3.9e+09           -12.9906      145.347
3.91e+09          -13.014       147.25
3.92e+09          -12.98        150.003
3.93e+09          -12.9828      152.782
3.94e+09          -12.9762      155.01
3.95e+09          -12.8569      156.499
3.96e+09          -12.6214      157.937
3.97e+09          -12.3419      159.281
3.98e+09          -12.0857      160.641
3.99e+09          -11.8302      161.475
4e+09             -11.5062      162.048
4.01e+09          -11.2354      162.323
4.02e+09          -10.9463      162.365
4.03e+09          -10.675       161.929
4.04e+09          -10.3562      161.164
4.05e+09          -10.0418      160.615
4.06e+09          -9.81109      160.205
4.07e+09          -9.63191      159.201
4.08e+09          -9.40851      157.723
4.09e+09          -9.10878      156.17
4.1e+09           -8.8308       155.141
4.11e+09          -8.66365      154.354
4.12e+09          -8.57473      152.836
4.13e+09          -8.42135      150.797
4.14e+09          -8.18099      149.039
4.15e+09          -7.97903      147.944
4.16e+09          -7.89874      146.853
4.17e+09          -7.87168      145.265
4.18e+09          -7.81642      143.123
4.19e+09          -7.6758       141.234
4.2e+09           -7.5467       139.778
4.21e+09          -7.50472      138.471
4.22e+09          -7.50015      136.723
4.23e+09          -7.46132      134.801
4.24e+09          -7.40803      133.077
4.25e+09          -7.3545       131.563
4.26e+09          -7.33173      130.102
4.27e+09          -7.31853      128.503
4.28e+09          -7.30207      127.079
4.29e+09          -7.3463       125.717
4.3e+09           -7.40568      123.97
4.31e+09          -7.42835      122.144
4.32e+09          -7.44297      120.605
4.33e+09          -7.494        119.42
4.34e+09          -7.60057      118.123
4.35e+09          -7.70386      116.302
4.36e+09          -7.74563      114.725
4.37e+09          -7.76242      113.699
4.38e+09          -7.84563      113.182
4.39e+09          -8.01929      112.428
4.4e+09           -8.17651      111.352
4.41e+09          -8.2811       110.309
4.42e+09          -8.35751      109.635
4.43e+09          -8.4965       109.344
4.44e+09          -8.64999      108.882
4.45e+09          -8.78469      107.986
4.46e+09          -8.82239      107.661
4.47e+09          -8.87243      107.792
4.48e+09          -8.97103      108.05
4.49e+09          -9.05377      108.184
4.5e+09           -9.07635      108.311
4.51e+09          -9.06773      108.789
4.52e+09          -9.07995      109.389
4.53e+09          -9.12795      109.823
4.54e+09          -9.0775       109.929
4.55e+09          -8.97022      110.245
4.56e+09          -8.83092      110.818
4.57e+09          -8.74705      111.222
4.58e+09          -8.64216      111.278
4.59e+09          -8.45198      111.141
4.6e+09           -8.23795      111.172
4.61e+09          -8.05135      111.427
4.62e+09          -7.92042      111.259
4.63e+09          -7.75125      110.648
4.64e+09          -7.51881      109.861
4.65e+09          -7.28577      109.428
4.66e+09          -7.10429      109.076
4.67e+09          -6.92978      108.27
4.68e+09          -6.72564      107.087
4.69e+09          -6.49539      106.144
4.7e+09           -6.29893      105.286
4.71e+09          -6.14409      104.233
4.72e+09          -6.00045      102.872
4.73e+09          -5.81581      101.382
4.74e+09          -5.62877      100.147
4.75e+09          -5.49465      99.047
4.76e+09          -5.38816      97.7756
4.77e+09          -5.25682      96.1611
4.78e+09          -5.10629      94.6454
4.79e+09          -4.95173      93.3248
4.8e+09           -4.84262      92.03
4.81e+09          -4.72826      90.6383
4.82e+09          -4.61348      89.1163
4.83e+09          -4.5129       87.737
4.84e+09          -4.44801      86.4317
4.85e+09          -4.40222      84.744
4.86e+09          -4.32058      82.9846
4.87e+09          -4.22153      81.4291
4.88e+09          -4.12996      80.07
4.89e+09          -4.08757      78.5941
4.9e+09           -4.02642      76.9258
4.91e+09          -3.93837      75.3794
4.92e+09          -3.83854      74.1511
4.93e+09          -3.80503      72.9638
4.94e+09          -3.78644      71.5629
4.95e+09          -3.74418      69.921
4.96e+09          -3.68263      68.4116
4.97e+09          -3.63794      67.2099
4.98e+09          -3.64289      65.8626
4.99e+09          -3.65178      64.2587
5e+09             -3.59315      62.4126
5.01e+09          -3.5306       61.0497
5.02e+09          -3.48367      59.8327
5.03e+09          -3.45874      58.5951
